Time [s], Analyzer Name, Decoded Protocol Result
0.000100166666667,SPI,MOSI: '0' (0x00)
0.168811583333333,SPI,MOSI: '0' (0x00)
0.169511625000000,SPI,MOSI: '28' (0x1C)
0.170365375000000,SPI,MOSI: '237' (0xED)
0.171096583333333,SPI,MOSI: '136' (0x88)
0.171887083333333,SPI,MOSI: '142' (0x8E)
0.172601041666667,SPI,MOSI: '192' (0xC0)
0.173341166666667,SPI,MOSI: '197' (0xC5)
0.191437083333333,SPI,MOSI: '192' (0xC0)
0.192154000000000,SPI,MOSI: '27' (0x1B)
0.193017375000000,SPI,MOSI: v (0x76)
0.193722416666667,SPI,MOSI: '0' (0x00)
0.194492041666667,SPI,MOSI: '146' (0x92)
0.195215625000000,SPI,MOSI: '16' (0x10)
0.213586458333333,SPI,MOSI: '192' (0xC0)
0.214299125000000,SPI,MOSI: '27' (0x1B)
0.215101208333333,SPI,MOSI: v (0x76)
0.215824791666667,SPI,MOSI: '1' (0x01)
0.216647750000000,SPI,MOSI: '3' (0x03)
0.217373291666667,SPI,MOSI: '16' (0x10)
0.235739875000000,SPI,MOSI: '192' (0xC0)
0.236440583333333,SPI,MOSI: '27' (0x1B)
0.237238375000000,SPI,MOSI: v (0x76)
0.237944375000000,SPI,MOSI: '2' (0x02)
0.238741833333333,SPI,MOSI: '5' (0x05)
0.239445833333333,SPI,MOSI: '16' (0x10)
0.257910833333333,SPI,MOSI: '192' (0xC0)
0.258636083333333,SPI,MOSI: '29' (0x1D)
0.259455708333333,SPI,MOSI: v (0x76)
0.260181916666667,SPI,MOSI: '128' (0x80)
0.260964166666667,SPI,MOSI: '0' (0x00)
0.261676458333333,SPI,MOSI: '16' (0x10)
0.262484166666667,SPI,MOSI: '128' (0x80)
0.263185875000000,SPI,MOSI: '146' (0x92)
0.281124083333333,SPI,MOSI: '195' (0xC3)
0.281896666666667,SPI,MOSI: '31' (0x1F)
0.282671625000000,SPI,MOSI: | (0x7C)
0.283408416666667,SPI,MOSI: '0' (0x00)
0.284160833333333,SPI,MOSI: '16' (0x10)
0.284911583333333,SPI,MOSI: '0' (0x00)
0.285705708333333,SPI,MOSI: '254' (0xFE)
0.286440208333333,SPI,MOSI: '255' (0xFF)
0.287186291666667,SPI,MOSI: '255' (0xFF)
0.287901916666667,SPI,MOSI: '223' (0xDF)
0.288715625000000,SPI,MOSI: ? (0x3F)
0.289444833333333,SPI,MOSI: ) (0x29)
0.290213125000000,SPI,MOSI: COMMA (0x2C)
0.290914833333333,SPI,MOSI: '240' (0xF0)
0.291711625000000,SPI,MOSI: '222' (0xDE)
0.292431541666667,SPI,MOSI: / (0x2F)
0.293194875000000,SPI,MOSI: a (0x61)
0.293941958333333,SPI,MOSI: '244' (0xF4)
0.294799375000000,SPI,MOSI: '244' (0xF4)
0.295537208333333,SPI,MOSI: '223' (0xDF)
0.296266416666667,SPI,MOSI: '221' (0xDD)
0.297018791666667,SPI,MOSI: '191' (0xBF)
0.297780125000000,SPI,MOSI: '255' (0xFF)
0.298521291666667,SPI,MOSI: '190' (0xBE)
0.299286916666667,SPI,MOSI: '255' (0xFF)
0.300036333333333,SPI,MOSI: '255' (0xFF)
0.300828500000000,SPI,MOSI: '3' (0x03)
0.301707750000000,SPI,MOSI: '0' (0x00)
0.302414125000000,SPI,MOSI: '224' (0xE0)
0.303253000000000,SPI,MOSI: '5' (0x05)
0.303966291666667,SPI,MOSI: @ (0x40)
0.304773000000000,SPI,MOSI: '0' (0x00)
0.305496916666667,SPI,MOSI: '0' (0x00)
0.306330791666667,SPI,MOSI: '0' (0x00)
0.324404166666667,SPI,MOSI: '192' (0xC0)
0.325133041666667,SPI,MOSI: '27' (0x1B)
0.326019291666667,SPI,MOSI: v (0x76)
0.326870750000000,SPI,MOSI: '0' (0x00)
0.327604250000000,SPI,MOSI: '146' (0x92)
0.328427875000000,SPI,MOSI: '16' (0x10)
0.346547625000000,SPI,MOSI: '192' (0xC0)
0.347292083333333,SPI,MOSI: '27' (0x1B)
0.348151458333333,SPI,MOSI: v (0x76)
0.348858166666667,SPI,MOSI: '1' (0x01)
0.349625791666667,SPI,MOSI: '3' (0x03)
0.350375208333333,SPI,MOSI: '16' (0x10)
0.368739125000000,SPI,MOSI: '192' (0xC0)
0.369503458333333,SPI,MOSI: '27' (0x1B)
0.370362541666667,SPI,MOSI: v (0x76)
0.371249125000000,SPI,MOSI: '2' (0x02)
0.371982291666667,SPI,MOSI: '5' (0x05)
0.372773458333333,SPI,MOSI: '16' (0x10)
0.390907791666667,SPI,MOSI: '192' (0xC0)
0.391610833333333,SPI,MOSI: '29' (0x1D)
0.392479166666667,SPI,MOSI: v (0x76)
0.393209708333333,SPI,MOSI: '128' (0x80)
0.393959791666667,SPI,MOSI: '0' (0x00)
0.394671416666667,SPI,MOSI: '16' (0x10)
0.395452625000000,SPI,MOSI: '128' (0x80)
0.396164291666667,SPI,MOSI: '146' (0x92)
0.414055458333333,SPI,MOSI: '195' (0xC3)
0.414777708333333,SPI,MOSI: '31' (0x1F)
0.415606958333333,SPI,MOSI: | (0x7C)
0.416376250000000,SPI,MOSI: '0' (0x00)
0.417122666666667,SPI,MOSI: '16' (0x10)
0.417865458333333,SPI,MOSI: '0' (0x00)
0.418671541666667,SPI,MOSI: '254' (0xFE)
0.419417625000000,SPI,MOSI: '255' (0xFF)
0.420122333333333,SPI,MOSI: '255' (0xFF)
0.420887333333333,SPI,MOSI: '223' (0xDF)
0.421682125000000,SPI,MOSI: ? (0x3F)
0.422397750000000,SPI,MOSI: ) (0x29)
0.423122625000000,SPI,MOSI: COMMA (0x2C)
0.423850166666667,SPI,MOSI: '240' (0xF0)
0.424661875000000,SPI,MOSI: '222' (0xDE)
0.425378833333333,SPI,MOSI: / (0x2F)
0.426168333333333,SPI,MOSI: a (0x61)
0.426919083333333,SPI,MOSI: '244' (0xF4)
0.427762250000000,SPI,MOSI: '244' (0xF4)
0.428484500000000,SPI,MOSI: '223' (0xDF)
0.429192500000000,SPI,MOSI: '221' (0xDD)
0.429948541666667,SPI,MOSI: '191' (0xBF)
0.430796666666667,SPI,MOSI: '255' (0xFF)
0.431666333333333,SPI,MOSI: '190' (0xBE)
0.432369041666667,SPI,MOSI: '255' (0xFF)
0.433222500000000,SPI,MOSI: '255' (0xFF)
0.433973541666667,SPI,MOSI: '3' (0x03)
0.434758083333333,SPI,MOSI: '0' (0x00)
0.435532333333333,SPI,MOSI: '224' (0xE0)
0.436264208333333,SPI,MOSI: '5' (0x05)
0.437016916666667,SPI,MOSI: @ (0x40)
0.437813375000000,SPI,MOSI: '0' (0x00)
0.438568750000000,SPI,MOSI: '0' (0x00)
0.439280750000000,SPI,MOSI: '0' (0x00)
0.457405500000000,SPI,MOSI: '195' (0xC3)
0.458155541666667,SPI,MOSI: '31' (0x1F)
0.458931458333333,SPI,MOSI: | (0x7C)
0.459674250000000,SPI,MOSI: '1' (0x01)
0.460409083333333,SPI,MOSI: '16' (0x10)
0.461165791666667,SPI,MOSI: '1' (0x01)
0.461968541666667,SPI,MOSI: '255' (0xFF)
0.462680208333333,SPI,MOSI: '255' (0xFF)
0.463397791666667,SPI,MOSI: '255' (0xFF)
0.464113416666667,SPI,MOSI: '255' (0xFF)
0.464938708333333,SPI,MOSI: '255' (0xFF)
0.465674541666667,SPI,MOSI: '255' (0xFF)
0.466455416666667,SPI,MOSI: '255' (0xFF)
0.467210125000000,SPI,MOSI: '255' (0xFF)
0.468033791666667,SPI,MOSI: '255' (0xFF)
0.468946500000000,SPI,MOSI: '255' (0xFF)
0.469689625000000,SPI,MOSI: '255' (0xFF)
0.470500000000000,SPI,MOSI: '255' (0xFF)
0.471219625000000,SPI,MOSI: '255' (0xFF)
0.472036958333333,SPI,MOSI: '255' (0xFF)
0.472749583333333,SPI,MOSI: '255' (0xFF)
0.473485750000000,SPI,MOSI: '255' (0xFF)
0.474217916666667,SPI,MOSI: '255' (0xFF)
0.475058458333333,SPI,MOSI: '255' (0xFF)
0.475797583333333,SPI,MOSI: '255' (0xFF)
0.476549666666667,SPI,MOSI: '255' (0xFF)
0.477280833333333,SPI,MOSI: '255' (0xFF)
0.478108458333333,SPI,MOSI: '255' (0xFF)
0.478964541666667,SPI,MOSI: '255' (0xFF)
0.479734500000000,SPI,MOSI: '255' (0xFF)
0.480656166666667,SPI,MOSI: '255' (0xFF)
0.481521875000000,SPI,MOSI: '255' (0xFF)
0.482253083333333,SPI,MOSI: '255' (0xFF)
0.483069750000000,SPI,MOSI: '255' (0xFF)
0.501658666666667,SPI,MOSI: '195' (0xC3)
0.502359708333333,SPI,MOSI: '31' (0x1F)
0.503209833333333,SPI,MOSI: | (0x7C)
0.503910208333333,SPI,MOSI: '2' (0x02)
0.504688458333333,SPI,MOSI: '16' (0x10)
0.505388833333333,SPI,MOSI: '2' (0x02)
0.506197541666667,SPI,MOSI: '255' (0xFF)
0.506931708333333,SPI,MOSI: '255' (0xFF)
0.507718583333333,SPI,MOSI: '255' (0xFF)
0.508423250000000,SPI,MOSI: '255' (0xFF)
0.509247208333333,SPI,MOSI: '255' (0xFF)
0.509962500000000,SPI,MOSI: '255' (0xFF)
0.510752000000000,SPI,MOSI: '255' (0xFF)
0.511453041666667,SPI,MOSI: '255' (0xFF)
0.512310791666667,SPI,MOSI: '255' (0xFF)
0.513059208333333,SPI,MOSI: '255' (0xFF)
0.513778458333333,SPI,MOSI: '255' (0xFF)
0.514479833333333,SPI,MOSI: '255' (0xFF)
0.515292208333333,SPI,MOSI: '255' (0xFF)
0.516020416666667,SPI,MOSI: '255' (0xFF)
0.516800000000000,SPI,MOSI: '255' (0xFF)
0.517501708333333,SPI,MOSI: '255' (0xFF)
0.518339541666667,SPI,MOSI: '255' (0xFF)
0.519041583333333,SPI,MOSI: '255' (0xFF)
0.519823791666667,SPI,MOSI: '255' (0xFF)
0.520525833333333,SPI,MOSI: '255' (0xFF)
0.521347166666667,SPI,MOSI: '255' (0xFF)
0.522053166666667,SPI,MOSI: '255' (0xFF)
0.522835375000000,SPI,MOSI: '255' (0xFF)
0.523540750000000,SPI,MOSI: '255' (0xFF)
0.524353750000000,SPI,MOSI: '255' (0xFF)
0.525089250000000,SPI,MOSI: '255' (0xFF)
0.525855875000000,SPI,MOSI: '255' (0xFF)
0.526558250000000,SPI,MOSI: '255' (0xFF)
0.544978208333333,SPI,MOSI: '193' (0xC1)
0.545703416666667,SPI,MOSI: '27' (0x1B)
0.546552875000000,SPI,MOSI: '127' (0x7F)
0.547252625000000,SPI,MOSI: '1' (0x01)
0.548031833333333,SPI,MOSI: '8' (0x08)
0.548736875000000,SPI,MOSI: '16' (0x10)
0.549578375000000,SPI,MOSI: '16' (0x10)
0.550314541666667,SPI,MOSI: '195' (0xC3)
0.551067583333333,SPI,MOSI: '1' (0x01)
0.551769291666667,SPI,MOSI: '0' (0x00)
0.552626708333333,SPI,MOSI: '129' (0x81)
0.553533500000000,SPI,MOSI: '1' (0x01)
0.554234208333333,SPI,MOSI: '255' (0xFF)
0.555082375000000,SPI,MOSI: '0' (0x00)
0.573182583333333,SPI,MOSI: '192' (0xC0)
0.573908125000000,SPI,MOSI: '28' (0x1C)
0.574736750000000,SPI,MOSI: p (0x70)
0.575437791666667,SPI,MOSI: '0' (0x00)
0.576204416666667,SPI,MOSI: '128' (0x80)
0.576907791666667,SPI,MOSI: '1' (0x01)
0.577724125000000,SPI,MOSI: '144' (0x90)
4.384340708333333,SPI,MOSI: '7' (0x07)
4.385140458333334,SPI,MOSI: '26' (0x1A)
4.385919708333334,SPI,MOSI: '238' (0xEE)
4.386799958333333,SPI,MOSI: '8' (0x08)
4.387583166666666,SPI,MOSI: '255' (0xFF)
4.388409458333333,SPI,MOSI: '16' (0x10)
4.389121416666667,SPI,MOSI: '255' (0xFF)
4.389957625000000,SPI,MOSI: ' ' (0x20)
4.390700416666666,SPI,MOSI: '255' (0xFF)
4.391431291666667,SPI,MOSI: ( (0x28)
4.392226750000000,SPI,MOSI: '255' (0xFF)
4.393006666666667,SPI,MOSI: 0 (0x30)
4.393894541666667,SPI,MOSI: '255' (0xFF)
4.394686375000000,SPI,MOSI: 8 (0x38)
4.395387083333333,SPI,MOSI: '255' (0xFF)
4.396100375000000,SPI,MOSI: @ (0x40)
4.396953166666667,SPI,MOSI: '255' (0xFF)
4.397759583333333,SPI,MOSI: H (0x48)
4.398535833333334,SPI,MOSI: '255' (0xFF)
4.399403833333333,SPI,MOSI: P (0x50)
4.400173791666667,SPI,MOSI: '255' (0xFF)
4.400960958333333,SPI,MOSI: X (0x58)
4.401682208333333,SPI,MOSI: '255' (0xFF)
4.402431958333334,SPI,MOSI: ` (0x60)
4.403190333333334,SPI,MOSI: '255' (0xFF)
4.404023875000000,SPI,MOSI: h (0x68)
4.404797500000000,SPI,MOSI: '255' (0xFF)
4.405499208333334,SPI,MOSI: p (0x70)
4.406206208333334,SPI,MOSI: '255' (0xFF)
4.407020208333333,SPI,MOSI: x (0x78)
4.407785541666667,SPI,MOSI: '255' (0xFF)
4.408501833333333,SPI,MOSI: '128' (0x80)
4.409237666666667,SPI,MOSI: '255' (0xFF)
4.410070875000000,SPI,MOSI: '136' (0x88)
4.410784500000000,SPI,MOSI: '142' (0x8E)
4.411582958333334,SPI,MOSI: '144' (0x90)
4.412363833333333,SPI,MOSI: '255' (0xFF)
4.413066875000000,SPI,MOSI: '152' (0x98)
4.413769250000000,SPI,MOSI: '255' (0xFF)
4.414555125000000,SPI,MOSI: '160' (0xA0)
4.415320750000000,SPI,MOSI: '255' (0xFF)
4.416083416666667,SPI,MOSI: '169' (0xA9)
4.416794416666667,SPI,MOSI: '255' (0xFF)
4.417546791666667,SPI,MOSI: '176' (0xB0)
4.418323041666667,SPI,MOSI: '255' (0xFF)
4.419164875000000,SPI,MOSI: '184' (0xB8)
4.420079958333333,SPI,MOSI: '255' (0xFF)
4.420916166666666,SPI,MOSI: '192' (0xC0)
4.421706333333334,SPI,MOSI: '197' (0xC5)
4.422570041666667,SPI,MOSI: '200' (0xC8)
4.423333708333334,SPI,MOSI: '255' (0xFF)
4.424188166666666,SPI,MOSI: '208' (0xD0)
4.425048541666667,SPI,MOSI: '255' (0xFF)
4.425833416666666,SPI,MOSI: '216' (0xD8)
4.426685541666667,SPI,MOSI: '255' (0xFF)
4.427423333333333,SPI,MOSI: '224' (0xE0)
4.428177416666666,SPI,MOSI: '255' (0xFF)
4.428909916666667,SPI,MOSI: '232' (0xE8)
4.429707375000000,SPI,MOSI: '238' (0xEE)
4.430624083333333,SPI,MOSI: '240' (0xF0)
4.431404000000000,SPI,MOSI: '255' (0xFF)
4.441850041666667,SPI,MOSI: '0' (0x00)
4.442755166666666,SPI,MOSI: '30' (0x1E)
4.443535083333333,SPI,MOSI: '236' (0xEC)
4.444342791666666,SPI,MOSI: '143' (0x8F)
4.445090875000000,SPI,MOSI: '255' (0xFF)
4.445817125000000,SPI,MOSI: '199' (0xC7)
4.446608916666666,SPI,MOSI: '199' (0xC7)
4.447536375000000,SPI,MOSI: '249' (0xF9)
4.448438875000000,SPI,MOSI: '194' (0xC2)
4.449341625000000,SPI,MOSI: s (0x73)
4.450244208333333,SPI,MOSI: '1' (0x01)
4.451147083333334,SPI,MOSI: '129' (0x81)
4.452049958333333,SPI,MOSI: n (0x6E)
4.452952500000000,SPI,MOSI: o (0x6F)
4.453854875000000,SPI,MOSI: ' ' (0x20)
4.454757833333334,SPI,MOSI: i (0x69)
4.455660500000000,SPI,MOSI: P (0x50)
4.456563333333333,SPI,MOSI: o (0x6F)
4.457465791666666,SPI,MOSI: d (0x64)
4.458368541666666,SPI,MOSI: ' ' (0x20)
4.468030791666667,SPI,MOSI: '0' (0x00)
4.468917041666667,SPI,MOSI: '30' (0x1E)
4.469727416666666,SPI,MOSI: '236' (0xEC)
4.470627250000000,SPI,MOSI: '143' (0x8F)
4.471545625000000,SPI,MOSI: '255' (0xFF)
4.472257625000000,SPI,MOSI: '199' (0xC7)
4.473026916666667,SPI,MOSI: '199' (0xC7)
4.473953416666666,SPI,MOSI: '250' (0xFA)
4.474855833333334,SPI,MOSI: '194' (0xC2)
4.475758583333334,SPI,MOSI: s (0x73)
4.476661125000000,SPI,MOSI: '1' (0x01)
4.477564083333333,SPI,MOSI: " (0x22)
4.478466916666667,SPI,MOSI: ' ' (0x20)
4.479369875000000,SPI,MOSI: ' ' (0x20)
4.480272833333333,SPI,MOSI: ' ' (0x20)
4.481175875000000,SPI,MOSI: ' ' (0x20)
4.482078833333333,SPI,MOSI: ' ' (0x20)
4.482981791666667,SPI,MOSI: ' ' (0x20)
4.483884750000000,SPI,MOSI: ' ' (0x20)
4.484787666666667,SPI,MOSI: ' ' (0x20)
4.485690625000000,SPI,MOSI: ' ' (0x20)
4.486593583333334,SPI,MOSI: ' ' (0x20)
4.487496541666666,SPI,MOSI: ' ' (0x20)
4.488399500000000,SPI,MOSI: ' ' (0x20)
4.489302458333333,SPI,MOSI: ' ' (0x20)
4.490205375000000,SPI,MOSI: ' ' (0x20)
4.491108333333333,SPI,MOSI: ' ' (0x20)
4.492011291666667,SPI,MOSI: ' ' (0x20)
4.502165875000000,SPI,MOSI: '0' (0x00)
4.502988500000000,SPI,MOSI: '30' (0x1E)
4.503755500000000,SPI,MOSI: '236' (0xEC)
4.504479708333333,SPI,MOSI: '143' (0x8F)
4.505178791666666,SPI,MOSI: '255' (0xFF)
4.505934458333333,SPI,MOSI: '199' (0xC7)
4.506769041666667,SPI,MOSI: '199' (0xC7)
4.507695583333334,SPI,MOSI: '252' (0xFC)
4.508598000000000,SPI,MOSI: '198' (0xC6)
4.509500625000000,SPI,MOSI: s (0x73)
4.510403208333333,SPI,MOSI: '1' (0x01)
4.511306125000000,SPI,MOSI: '4' (0x04)
4.512209083333333,SPI,MOSI: S (0x53)
4.513111750000000,SPI,MOSI: e (0x65)
4.514014375000000,SPI,MOSI: r (0x72)
4.514917041666667,SPI,MOSI: i (0x69)
4.515819708333333,SPI,MOSI: a (0x61)
4.516722458333334,SPI,MOSI: l (0x6C)
4.517625083333333,SPI,MOSI: : (0x3A)
4.518527750000000,SPI,MOSI: ' ' (0x20)
4.519430625000000,SPI,MOSI: 0 (0x30)
4.520333583333334,SPI,MOSI: 0 (0x31)
4.521236333333333,SPI,MOSI: 0 (0x38)
4.522139083333333,SPI,MOSI: 0 (0x44)
4.523041958333334,SPI,MOSI: 0 (0x38)
4.523944708333334,SPI,MOSI: 0 (0x37)
4.524847250000000,SPI,MOSI: '0' (0x00)
4.525750291666666,SPI,MOSI: '0' (0x00)
4.526653333333333,SPI,MOSI: ' ' (0x20)
4.527556291666667,SPI,MOSI: ' ' (0x20)
4.528459250000000,SPI,MOSI: ' ' (0x20)
4.529362208333334,SPI,MOSI: ' ' (0x20)
4.530265166666666,SPI,MOSI: ' ' (0x20)
4.531168083333333,SPI,MOSI: ' ' (0x20)
4.532071041666667,SPI,MOSI: ' ' (0x20)
4.532974000000000,SPI,MOSI: ' ' (0x20)
4.533876958333333,SPI,MOSI: ' ' (0x20)
4.534779916666666,SPI,MOSI: ' ' (0x20)
4.535682833333333,SPI,MOSI: ' ' (0x20)
4.536585791666667,SPI,MOSI: ' ' (0x20)
4.537488750000000,SPI,MOSI: ' ' (0x20)
4.538391708333333,SPI,MOSI: ' ' (0x20)
4.539294666666667,SPI,MOSI: ' ' (0x20)
4.540197625000000,SPI,MOSI: ' ' (0x20)
4.541100541666666,SPI,MOSI: ' ' (0x20)
4.542003500000000,SPI,MOSI: ' ' (0x20)
4.542906458333333,SPI,MOSI: ' ' (0x20)
4.543809416666667,SPI,MOSI: ' ' (0x20)
4.553535791666667,SPI,MOSI: '0' (0x00)
4.554307416666667,SPI,MOSI: '30' (0x1E)
4.555075041666667,SPI,MOSI: '236' (0xEC)
4.555818500000000,SPI,MOSI: '143' (0x8F)
4.556539416666666,SPI,MOSI: '255' (0xFF)
4.557340500000000,SPI,MOSI: '199' (0xC7)
4.558159166666667,SPI,MOSI: '199' (0xC7)
4.559085708333333,SPI,MOSI: '252' (0xFC)
4.559988125000000,SPI,MOSI: '198' (0xC6)
4.560890750000000,SPI,MOSI: s (0x73)
4.561793291666667,SPI,MOSI: '1' (0x01)
4.562696250000000,SPI,MOSI: '3' (0x03)
4.563599125000000,SPI,MOSI: ' ' (0x20)
4.564502083333333,SPI,MOSI: ' ' (0x20)
4.565405000000000,SPI,MOSI: w (0x77)
4.566307458333333,SPI,MOSI: w (0x77)
4.567209916666667,SPI,MOSI: w (0x77)
4.568112375000000,SPI,MOSI: . (0x2E)
4.569015000000000,SPI,MOSI: i (0x69)
4.569917666666667,SPI,MOSI: M (0x4D)
4.570820333333334,SPI,MOSI: I (0x49)
4.571723000000000,SPI,MOSI: V (0x56)
4.572625750000000,SPI,MOSI: . (0x2E)
4.573528416666667,SPI,MOSI: c (0x63)
4.574431083333334,SPI,MOSI: a (0x61)
4.575333833333334,SPI,MOSI: ' ' (0x20)
4.576236750000000,SPI,MOSI: ' ' (0x20)
4.577139708333333,SPI,MOSI: ' ' (0x20)
4.578042666666667,SPI,MOSI: '0' (0x00)
4.578945708333333,SPI,MOSI: '0' (0x00)
4.579848791666667,SPI,MOSI: ' ' (0x20)
4.580751708333334,SPI,MOSI: ' ' (0x20)
4.581654666666667,SPI,MOSI: ' ' (0x20)
4.582557625000000,SPI,MOSI: ' ' (0x20)
4.583460583333333,SPI,MOSI: ' ' (0x20)
4.584363458333334,SPI,MOSI: ' ' (0x20)
4.585266416666666,SPI,MOSI: ' ' (0x20)
4.586169375000000,SPI,MOSI: ' ' (0x20)
4.587072333333333,SPI,MOSI: ' ' (0x20)
4.587975291666667,SPI,MOSI: ' ' (0x20)
4.588878208333333,SPI,MOSI: ' ' (0x20)
4.589781166666667,SPI,MOSI: ' ' (0x20)
4.590684125000000,SPI,MOSI: ' ' (0x20)
4.591587083333334,SPI,MOSI: ' ' (0x20)
4.592490041666666,SPI,MOSI: ' ' (0x20)
4.593393000000000,SPI,MOSI: ' ' (0x20)
4.594295916666667,SPI,MOSI: ' ' (0x20)
4.595198875000000,SPI,MOSI: ' ' (0x20)
4.607884125000000,SPI,MOSI: '0' (0x00)
4.608689208333334,SPI,MOSI: '30' (0x1E)
4.609520458333333,SPI,MOSI: '236' (0xEC)
4.610419958333333,SPI,MOSI: '143' (0x8F)
4.611397958333334,SPI,MOSI: '143' (0x8F)
4.612577291666667,SPI,MOSI: '0' (0x00)
4.613777000000000,SPI,MOSI: '138' (0x8A)
4.614976708333334,SPI,MOSI: '175' (0xAF)
4.616176375000000,SPI,MOSI: 7 (0x37)
4.617386083333333,SPI,MOSI: '1' (0x01)
4.635073708333334,SPI,MOSI: '233' (0xE9)
4.635819166666667,SPI,MOSI: '27' (0x1B)
4.636652708333333,SPI,MOSI: '224' (0xE0)
4.637368666666666,SPI,MOSI: '1' (0x01)
4.638201250000000,SPI,MOSI: '8' (0x08)
4.639646708333333,SPI,MOSI: '0' (0x00)
4.640356708333333,SPI,MOSI: '2' (0x02)
4.641295625000000,SPI,MOSI: '0' (0x00)
4.642180541666667,SPI,MOSI: '1' (0x01)
4.642944208333334,SPI,MOSI: '128' (0x80)
4.643707541666667,SPI,MOSI: '1' (0x01)
4.644489416666667,SPI,MOSI: '12' (0x0C)
4.645270291666667,SPI,MOSI: '204' (0xCC)
4.645970375000000,SPI,MOSI: '204' (0xCC)
4.664311083333334,SPI,MOSI: '232' (0xE8)
4.665128416666667,SPI,MOSI: '30' (0x1E)
4.665927875000000,SPI,MOSI: '239' (0xEF)
4.667844791666667,SPI,MOSI: '0' (0x00)
4.668563416666666,SPI,MOSI: '0' (0x00)
4.669363500000000,SPI,MOSI: '31' (0x1F)
4.670134791666666,SPI,MOSI: J (0x4A)
4.670967666666667,SPI,MOSI: '0' (0x00)
4.671832041666667,SPI,MOSI: '31' (0x1F)
4.690470291666666,SPI,MOSI: '192' (0xC0)
4.691233958333333,SPI,MOSI: '27' (0x1B)
4.692123500000000,SPI,MOSI: v (0x76)
4.693042541666666,SPI,MOSI: '0' (0x00)
4.693765458333333,SPI,MOSI: '146' (0x92)
4.694570208333333,SPI,MOSI: '16' (0x10)
4.712661125000000,SPI,MOSI: '192' (0xC0)
4.713374458333333,SPI,MOSI: '27' (0x1B)
4.714202375000000,SPI,MOSI: v (0x76)
4.714908708333334,SPI,MOSI: '1' (0x01)
4.715704500000000,SPI,MOSI: '3' (0x03)
4.716478125000000,SPI,MOSI: '16' (0x10)
4.734834416666667,SPI,MOSI: '192' (0xC0)
4.735548041666667,SPI,MOSI: '27' (0x1B)
4.736385250000000,SPI,MOSI: v (0x76)
4.737284083333333,SPI,MOSI: '2' (0x02)
4.738000708333334,SPI,MOSI: '5' (0x05)
4.738871375000000,SPI,MOSI: '16' (0x10)
4.756950041666666,SPI,MOSI: '192' (0xC0)
4.757728291666667,SPI,MOSI: '29' (0x1D)
4.758583375000000,SPI,MOSI: v (0x76)
4.759411625000000,SPI,MOSI: '128' (0x80)
4.760177958333333,SPI,MOSI: '0' (0x00)
4.761061208333333,SPI,MOSI: '16' (0x10)
4.761763583333333,SPI,MOSI: '128' (0x80)
4.762566333333333,SPI,MOSI: '146' (0x92)
4.781086291666667,SPI,MOSI: '195' (0xC3)
4.781898666666667,SPI,MOSI: '31' (0x1F)
4.782729583333333,SPI,MOSI: | (0x7C)
4.783590625000000,SPI,MOSI: '0' (0x00)
4.784326791666667,SPI,MOSI: '16' (0x10)
4.785195500000000,SPI,MOSI: '0' (0x00)
4.785975041666667,SPI,MOSI: '254' (0xFE)
4.786737708333333,SPI,MOSI: '255' (0xFF)
4.787470583333334,SPI,MOSI: '255' (0xFF)
4.788224625000000,SPI,MOSI: '223' (0xDF)
4.788957791666666,SPI,MOSI: ? (0x3F)
4.789820833333334,SPI,MOSI: ) (0x29)
4.790705083333333,SPI,MOSI: COMMA (0x2C)
4.791463458333333,SPI,MOSI: '240' (0xF0)
4.792282791666667,SPI,MOSI: '222' (0xDE)
4.793055708333333,SPI,MOSI: / (0x2F)
4.793792208333334,SPI,MOSI: a (0x61)
4.794499208333334,SPI,MOSI: '244' (0xF4)
4.795280750000000,SPI,MOSI: '244' (0xF4)
4.796063958333334,SPI,MOSI: '223' (0xDF)
4.796786208333334,SPI,MOSI: '221' (0xDD)
4.797514083333334,SPI,MOSI: '191' (0xBF)
4.798258875000000,SPI,MOSI: '255' (0xFF)
4.799046708333333,SPI,MOSI: '190' (0xBE)
4.799875625000000,SPI,MOSI: '255' (0xFF)
4.800725458333333,SPI,MOSI: '255' (0xFF)
4.801502666666667,SPI,MOSI: '3' (0x03)
4.802346833333333,SPI,MOSI: '0' (0x00)
4.803062458333334,SPI,MOSI: '224' (0xE0)
4.803843375000000,SPI,MOSI: '5' (0x05)
4.804549375000000,SPI,MOSI: @ (0x40)
4.805359416666667,SPI,MOSI: '0' (0x00)
4.806131375000000,SPI,MOSI: '0' (0x00)
4.806860541666667,SPI,MOSI: '0' (0x00)
4.825401750000000,SPI,MOSI: '195' (0xC3)
4.826169375000000,SPI,MOSI: '31' (0x1F)
4.827028458333333,SPI,MOSI: | (0x7C)
4.827753333333333,SPI,MOSI: '1' (0x01)
4.828538208333334,SPI,MOSI: '16' (0x10)
4.829369458333334,SPI,MOSI: '1' (0x01)
4.830153333333334,SPI,MOSI: '255' (0xFF)
4.831035916666667,SPI,MOSI: '255' (0xFF)
4.831810166666667,SPI,MOSI: '255' (0xFF)
4.832519500000000,SPI,MOSI: '255' (0xFF)
4.833271916666667,SPI,MOSI: '255' (0xFF)
4.834072000000000,SPI,MOSI: '255' (0xFF)
4.834990708333334,SPI,MOSI: '255' (0xFF)
4.835735166666667,SPI,MOSI: '255' (0xFF)
4.836595541666667,SPI,MOSI: '255' (0xFF)
4.837492083333333,SPI,MOSI: '255' (0xFF)
4.838269000000000,SPI,MOSI: '255' (0xFF)
4.839108166666667,SPI,MOSI: '255' (0xFF)
4.840041458333333,SPI,MOSI: '255' (0xFF)
4.840754458333334,SPI,MOSI: '255' (0xFF)
4.841617500000000,SPI,MOSI: '255' (0xFF)
4.842390083333333,SPI,MOSI: '255' (0xFF)
4.843209416666666,SPI,MOSI: '255' (0xFF)
4.843932000000000,SPI,MOSI: '255' (0xFF)
4.844636666666666,SPI,MOSI: '255' (0xFF)
4.845362250000000,SPI,MOSI: '255' (0xFF)
4.846207416666667,SPI,MOSI: '255' (0xFF)
4.847055208333333,SPI,MOSI: '255' (0xFF)
4.847825500000000,SPI,MOSI: '255' (0xFF)
4.848682916666666,SPI,MOSI: '255' (0xFF)
4.849468791666666,SPI,MOSI: '255' (0xFF)
4.850184041666667,SPI,MOSI: '255' (0xFF)
4.850892041666667,SPI,MOSI: '255' (0xFF)
4.851719333333333,SPI,MOSI: '255' (0xFF)
4.869782083333333,SPI,MOSI: '195' (0xC3)
4.870547750000000,SPI,MOSI: '31' (0x1F)
4.871401500000000,SPI,MOSI: | (0x7C)
4.872273500000000,SPI,MOSI: '2' (0x02)
4.873058375000000,SPI,MOSI: '16' (0x10)
4.873791875000000,SPI,MOSI: '2' (0x02)
4.874498250000000,SPI,MOSI: '255' (0xFF)
4.875359291666666,SPI,MOSI: '255' (0xFF)
4.876252166666666,SPI,MOSI: '255' (0xFF)
4.876967458333334,SPI,MOSI: '255' (0xFF)
4.877824208333333,SPI,MOSI: '255' (0xFF)
4.878642541666666,SPI,MOSI: '255' (0xFF)
4.879426750000000,SPI,MOSI: '255' (0xFF)
4.880140041666666,SPI,MOSI: '255' (0xFF)
4.880853000000000,SPI,MOSI: '255' (0xFF)
4.881614333333333,SPI,MOSI: '255' (0xFF)
4.882468458333333,SPI,MOSI: '255' (0xFF)
4.883400416666666,SPI,MOSI: '255' (0xFF)
4.884115375000000,SPI,MOSI: '255' (0xFF)
4.884937666666667,SPI,MOSI: '255' (0xFF)
4.885719541666667,SPI,MOSI: '255' (0xFF)
4.886449083333333,SPI,MOSI: '255' (0xFF)
4.887161708333333,SPI,MOSI: '255' (0xFF)
4.887950250000000,SPI,MOSI: '255' (0xFF)
4.888884166666666,SPI,MOSI: '255' (0xFF)
4.889647833333333,SPI,MOSI: '255' (0xFF)
4.890474791666667,SPI,MOSI: '255' (0xFF)
4.891358041666667,SPI,MOSI: '255' (0xFF)
4.892142583333333,SPI,MOSI: '255' (0xFF)
4.893046041666667,SPI,MOSI: '255' (0xFF)
4.893947875000000,SPI,MOSI: '255' (0xFF)
4.894669791666667,SPI,MOSI: '255' (0xFF)
4.895488750000000,SPI,MOSI: '255' (0xFF)
4.896278916666667,SPI,MOSI: '255' (0xFF)
4.914107791666667,SPI,MOSI: '193' (0xC1)
4.915029500000000,SPI,MOSI: '27' (0x1B)
4.915778250000000,SPI,MOSI: '127' (0x7F)
4.916649916666667,SPI,MOSI: '1' (0x01)
4.917544750000000,SPI,MOSI: '8' (0x08)
4.918251750000000,SPI,MOSI: '16' (0x10)
4.919126416666667,SPI,MOSI: '16' (0x10)
4.919907291666667,SPI,MOSI: '195' (0xC3)
4.920739208333333,SPI,MOSI: '1' (0x01)
4.921655250000000,SPI,MOSI: '0' (0x00)
4.922465958333333,SPI,MOSI: '129' (0x81)
4.923302833333334,SPI,MOSI: '1' (0x01)
4.924243083333334,SPI,MOSI: '255' (0xFF)
4.925106125000000,SPI,MOSI: '0' (0x00)
4.943277583333333,SPI,MOSI: '192' (0xC0)
4.943989208333333,SPI,MOSI: '28' (0x1C)
4.944825458333334,SPI,MOSI: p (0x70)
4.945593083333334,SPI,MOSI: '2' (0x02)
4.946382583333333,SPI,MOSI: '128' (0x80)
4.947164458333333,SPI,MOSI: '1' (0x01)
4.947871791666667,SPI,MOSI: '16' (0x10)
4.960442833333333,SPI,MOSI: '0' (0x00)
4.961375458333333,SPI,MOSI: '30' (0x1E)
4.962112958333333,SPI,MOSI: '236' (0xEC)
4.962978000000000,SPI,MOSI: '143' (0x8F)
4.963903666666667,SPI,MOSI: '143' (0x8F)
4.965087500000000,SPI,MOSI: '0' (0x00)
4.966287166666667,SPI,MOSI: '138' (0x8A)
4.967486875000000,SPI,MOSI: '175' (0xAF)
4.968686583333334,SPI,MOSI: 7 (0x37)
4.969896250000000,SPI,MOSI: '1' (0x01)
5.082296625000000,SPI,MOSI: '0' (0x00)
5.083055666666667,SPI,MOSI: '30' (0x1E)
5.083855416666666,SPI,MOSI: '236' (0xEC)
5.084601541666666,SPI,MOSI: '143' (0x8F)
5.085389708333333,SPI,MOSI: '143' (0x8F)
5.086566541666667,SPI,MOSI: '168' (0xA8)
5.087766250000000,SPI,MOSI: '140' (0x8C)
5.088965916666667,SPI,MOSI: '175' (0xAF)
5.090175625000000,SPI,MOSI: '204' (0xCC)
5.091385333333333,SPI,MOSI: '0' (0x00)
5.092595000000000,SPI,MOSI: '1' (0x01)
5.093804708333334,SPI,MOSI: '8' (0x08)
5.220233958333333,SPI,MOSI: '0' (0x00)
5.221023125000000,SPI,MOSI: '30' (0x1E)
5.221882208333334,SPI,MOSI: '236' (0xEC)
5.222827416666667,SPI,MOSI: '143' (0x8F)
5.223544375000000,SPI,MOSI: '143' (0x8F)
5.224721333333333,SPI,MOSI: '168' (0xA8)
5.225921041666667,SPI,MOSI: '140' (0x8C)
5.227140750000000,SPI,MOSI: '175' (0xAF)
5.228360416666667,SPI,MOSI: '204' (0xCC)
5.229570125000000,SPI,MOSI: '0' (0x00)
5.230779791666667,SPI,MOSI: '1' (0x01)
5.231989500000000,SPI,MOSI: '8' (0x08)
5.333103750000000,SPI,MOSI: '0' (0x00)
5.333874041666666,SPI,MOSI: '30' (0x1E)
5.334680458333334,SPI,MOSI: '236' (0xEC)
5.335608083333334,SPI,MOSI: '143' (0x8F)
5.336406875000000,SPI,MOSI: '143' (0x8F)
5.337582625000000,SPI,MOSI: '248' (0xF8)
5.338782291666667,SPI,MOSI: '138' (0x8A)
5.339982000000000,SPI,MOSI: '175' (0xAF)
5.341191666666667,SPI,MOSI: '202' (0xCA)
5.342401375000000,SPI,MOSI: '0' (0x00)
6.023979625000000,SPI,MOSI: '193' (0xC1)
6.024691250000000,SPI,MOSI: '27' (0x1B)
6.025524166666667,SPI,MOSI: '127' (0x7F)
6.026227208333333,SPI,MOSI: '1' (0x01)
6.027012375000000,SPI,MOSI: '8' (0x08)
6.027788958333334,SPI,MOSI: '16' (0x10)
6.028618541666667,SPI,MOSI: '0' (0x00)
6.029469375000000,SPI,MOSI: '195' (0xC3)
6.030238000000000,SPI,MOSI: '1' (0x01)
6.031101708333333,SPI,MOSI: '0' (0x00)
6.031802083333333,SPI,MOSI: '129' (0x81)
6.032589916666667,SPI,MOSI: '1' (0x01)
6.033326416666666,SPI,MOSI: '255' (0xFF)
6.034126166666667,SPI,MOSI: '0' (0x00)
6.052341000000000,SPI,MOSI: '192' (0xC0)
6.053180875000000,SPI,MOSI: '29' (0x1D)
6.053903458333333,SPI,MOSI: w (0x77)
6.054795333333334,SPI,MOSI: '129' (0x81)
6.055768708333333,SPI,MOSI: '7' (0x07)
6.056475041666666,SPI,MOSI: '16' (0x10)
6.057275458333334,SPI,MOSI: '129' (0x81)
6.058049083333334,SPI,MOSI: '7' (0x07)
7.147436166666667,SPI,MOSI: '193' (0xC1)
7.148151458333333,SPI,MOSI: '27' (0x1B)
7.148967791666666,SPI,MOSI: '127' (0x7F)
7.149684750000000,SPI,MOSI: '1' (0x01)
7.150540500000000,SPI,MOSI: '8' (0x08)
7.151341625000000,SPI,MOSI: '16' (0x10)
7.152107916666667,SPI,MOSI: '0' (0x00)
7.152822208333333,SPI,MOSI: '195' (0xC3)
7.153567333333333,SPI,MOSI: '1' (0x01)
7.154481708333333,SPI,MOSI: '0' (0x00)
7.155183416666667,SPI,MOSI: '129' (0x81)
7.156037208333333,SPI,MOSI: '1' (0x01)
7.156814458333334,SPI,MOSI: '255' (0xFF)
7.157609583333334,SPI,MOSI: '0' (0x00)
8.270418833333334,SPI,MOSI: '193' (0xC1)
8.271130125000001,SPI,MOSI: '27' (0x1B)
8.271978291666667,SPI,MOSI: '127' (0x7F)
8.272742583333333,SPI,MOSI: '1' (0x01)
8.273528791666667,SPI,MOSI: '8' (0x08)
8.274248375000001,SPI,MOSI: '16' (0x10)
8.274989166666666,SPI,MOSI: '0' (0x00)
8.275690875000000,SPI,MOSI: '195' (0xC3)
8.276549291666667,SPI,MOSI: '1' (0x01)
8.277330833333334,SPI,MOSI: '0' (0x00)
8.278097499999999,SPI,MOSI: '129' (0x81)
8.278797208333334,SPI,MOSI: '1' (0x01)
8.279590333333333,SPI,MOSI: '255' (0xFF)
8.280398416666667,SPI,MOSI: '0' (0x00)
9.392528083333334,SPI,MOSI: '193' (0xC1)
9.393410333333334,SPI,MOSI: '27' (0x1B)
9.394245583333333,SPI,MOSI: '127' (0x7F)
9.395038708333333,SPI,MOSI: '1' (0x01)
9.395801375000000,SPI,MOSI: '8' (0x08)
9.396518333333333,SPI,MOSI: '16' (0x10)
9.397228958333333,SPI,MOSI: '0' (0x00)
9.398030041666667,SPI,MOSI: '195' (0xC3)
9.398795041666666,SPI,MOSI: '1' (0x01)
9.399539833333334,SPI,MOSI: '0' (0x00)
9.400258083333334,SPI,MOSI: '129' (0x81)
9.401018416666666,SPI,MOSI: '1' (0x01)
9.401776791666666,SPI,MOSI: '255' (0xFF)
9.402608375000000,SPI,MOSI: '0' (0x00)
10.517412750000000,SPI,MOSI: '193' (0xC1)
10.518112791666667,SPI,MOSI: '27' (0x1B)
10.518972874999999,SPI,MOSI: '127' (0x7F)
10.519769999999999,SPI,MOSI: '1' (0x01)
10.520554208333333,SPI,MOSI: '8' (0x08)
10.521273791666667,SPI,MOSI: '16' (0x10)
10.521990375000000,SPI,MOSI: '0' (0x00)
10.522728875000000,SPI,MOSI: '195' (0xC3)
10.523585291666667,SPI,MOSI: '1' (0x01)
10.524427458333333,SPI,MOSI: '0' (0x00)
10.525209000000000,SPI,MOSI: '129' (0x81)
10.526119458333334,SPI,MOSI: '1' (0x01)
10.526901333333333,SPI,MOSI: '255' (0xFF)
10.527683541666667,SPI,MOSI: '0' (0x00)
11.582541458333333,SPI,MOSI: '0' (0x00)
11.583307791666666,SPI,MOSI: '30' (0x1E)
11.584156249999999,SPI,MOSI: '236' (0xEC)
11.585054416666667,SPI,MOSI: '143' (0x8F)
11.585793875000000,SPI,MOSI: '143' (0x8F)
11.586971875000000,SPI,MOSI: '0' (0x00)
11.588171541666666,SPI,MOSI: '138' (0x8A)
11.589371249999999,SPI,MOSI: '175' (0xAF)
11.590570958333334,SPI,MOSI: 7 (0x37)
11.591780625000000,SPI,MOSI: '1' (0x01)
11.638473791666666,SPI,MOSI: '193' (0xC1)
11.639178833333334,SPI,MOSI: '27' (0x1B)
11.640001125000000,SPI,MOSI: '127' (0x7F)
11.640902583333334,SPI,MOSI: '1' (0x01)
11.641664583333334,SPI,MOSI: '8' (0x08)
11.642512041666667,SPI,MOSI: '16' (0x10)
11.643424791666666,SPI,MOSI: '0' (0x00)
11.644206333333333,SPI,MOSI: '195' (0xC3)
11.645023333333333,SPI,MOSI: '1' (0x01)
11.645726708333333,SPI,MOSI: '0' (0x00)
11.646514874999999,SPI,MOSI: '129' (0x81)
11.647232166666667,SPI,MOSI: '1' (0x01)
11.648020000000001,SPI,MOSI: '255' (0xFF)
11.648785291666666,SPI,MOSI: '0' (0x00)
11.758856249999999,SPI,MOSI: '0' (0x00)
11.759774625000000,SPI,MOSI: '30' (0x1E)
11.760490250000000,SPI,MOSI: '236' (0xEC)
11.761347666666667,SPI,MOSI: '143' (0x8F)
11.762255083333333,SPI,MOSI: '143' (0x8F)
11.763436958333333,SPI,MOSI: '0' (0x00)
11.764636625000000,SPI,MOSI: '138' (0x8A)
11.765836333333333,SPI,MOSI: '175' (0xAF)
11.767036041666668,SPI,MOSI: 7 (0x37)
11.768245708333334,SPI,MOSI: '1' (0x01)
12.761871333333334,SPI,MOSI: '193' (0xC1)
12.762672750000000,SPI,MOSI: '27' (0x1B)
12.763477166666666,SPI,MOSI: '127' (0x7F)
12.764258041666666,SPI,MOSI: '1' (0x01)
12.764957416666666,SPI,MOSI: '8' (0x08)
12.765684291666666,SPI,MOSI: '16' (0x10)
12.766478749999999,SPI,MOSI: '0' (0x00)
12.767254666666666,SPI,MOSI: '195' (0xC3)
12.768020625000000,SPI,MOSI: '1' (0x01)
12.768725333333334,SPI,MOSI: '0' (0x00)
12.769521458333333,SPI,MOSI: '129' (0x81)
12.770223791666666,SPI,MOSI: '1' (0x01)
12.771018958333332,SPI,MOSI: '255' (0xFF)
12.771723958333334,SPI,MOSI: '0' (0x00)
13.886400083333333,SPI,MOSI: '193' (0xC1)
13.887109416666666,SPI,MOSI: '27' (0x1B)
13.888023499999999,SPI,MOSI: '127' (0x7F)
13.888938541666667,SPI,MOSI: '1' (0x01)
13.889651166666667,SPI,MOSI: '8' (0x08)
13.890487708333334,SPI,MOSI: '16' (0x10)
13.891273249999999,SPI,MOSI: '0' (0x00)
13.892043500000000,SPI,MOSI: '195' (0xC3)
13.892744208333333,SPI,MOSI: '1' (0x01)
13.893509208333333,SPI,MOSI: '0' (0x00)
13.894222166666667,SPI,MOSI: '129' (0x81)
13.895020916666667,SPI,MOSI: '1' (0x01)
13.895789875000000,SPI,MOSI: '255' (0xFF)
13.896527375000000,SPI,MOSI: '0' (0x00)
15.006823458333333,SPI,MOSI: '193' (0xC1)
15.007554958333333,SPI,MOSI: '27' (0x1B)
15.008439208333334,SPI,MOSI: '127' (0x7F)
15.009212458333334,SPI,MOSI: '1' (0x01)
15.009996333333333,SPI,MOSI: '8' (0x08)
15.010714291666666,SPI,MOSI: '16' (0x10)
15.011445791666667,SPI,MOSI: '0' (0x00)
15.012224666666667,SPI,MOSI: '195' (0xC3)
15.012988000000000,SPI,MOSI: '1' (0x01)
15.013691333333334,SPI,MOSI: '0' (0x00)
15.014485499999999,SPI,MOSI: '129' (0x81)
15.015205083333333,SPI,MOSI: '1' (0x01)
15.015995875000000,SPI,MOSI: '255' (0xFF)
15.016758541666666,SPI,MOSI: '0' (0x00)
16.131319791666666,SPI,MOSI: '193' (0xC1)
16.132038083333335,SPI,MOSI: '27' (0x1B)
16.132866666666665,SPI,MOSI: '127' (0x7F)
16.133567041666666,SPI,MOSI: '1' (0x01)
16.134451583333334,SPI,MOSI: '8' (0x08)
16.135240083333333,SPI,MOSI: '16' (0x10)
16.136004416666665,SPI,MOSI: '0' (0x00)
16.136724999999998,SPI,MOSI: '195' (0xC3)
16.137456833333335,SPI,MOSI: '1' (0x01)
16.138231083333334,SPI,MOSI: '0' (0x00)
16.139002375000000,SPI,MOSI: '129' (0x81)
16.139705374999998,SPI,MOSI: '1' (0x01)
16.140525374999999,SPI,MOSI: '255' (0xFF)
16.141285041666666,SPI,MOSI: '0' (0x00)
17.254818125000000,SPI,MOSI: '193' (0xC1)
17.255535041666668,SPI,MOSI: '27' (0x1B)
17.256441166666665,SPI,MOSI: '127' (0x7F)
17.257152458333334,SPI,MOSI: '1' (0x01)
17.257933999999999,SPI,MOSI: '8' (0x08)
17.258720833333335,SPI,MOSI: '16' (0x10)
17.259436458333333,SPI,MOSI: '0' (0x00)
17.260138833333333,SPI,MOSI: '195' (0xC3)
17.260948166666665,SPI,MOSI: '1' (0x01)
17.261859916666666,SPI,MOSI: '0' (0x00)
17.262630208333334,SPI,MOSI: '129' (0x81)
17.263454791666668,SPI,MOSI: '1' (0x01)
17.264233708333332,SPI,MOSI: '255' (0xFF)
17.264940374999998,SPI,MOSI: '0' (0x00)
17.283013166666667,SPI,MOSI: '193' (0xC1)
17.283783416666665,SPI,MOSI: '29' (0x1D)
17.284615666666667,SPI,MOSI: s (0x73)
17.285388916666665,SPI,MOSI: '1' (0x01)
17.286177416666668,SPI,MOSI: '129' (0x81)
17.287088833333332,SPI,MOSI: '16' (0x10)
17.287859416666667,SPI,MOSI: '1' (0x01)
17.288675749999999,SPI,MOSI: '129' (0x81)
17.289377791666666,SPI,MOSI: n (0x6E)
17.290094374999999,SPI,MOSI: o (0x6F)
17.290845749999999,SPI,MOSI: ' ' (0x20)
17.291725708333335,SPI,MOSI: i (0x69)
17.292631791666668,SPI,MOSI: P (0x50)
17.293352041666665,SPI,MOSI: o (0x6F)
17.294185291666668,SPI,MOSI: d (0x64)
17.294956208333332,SPI,MOSI: ' ' (0x20)
17.305176833333334,SPI,MOSI: '0' (0x00)
17.305953083333332,SPI,MOSI: '30' (0x1E)
17.306813458333334,SPI,MOSI: '236' (0xEC)
17.307693083333334,SPI,MOSI: '143' (0x8F)
17.308457375000000,SPI,MOSI: '255' (0xFF)
17.309294583333333,SPI,MOSI: '199' (0xC7)
17.309998916666668,SPI,MOSI: '199' (0xC7)
17.310925458333333,SPI,MOSI: '252' (0xFC)
17.311827958333332,SPI,MOSI: '198' (0xC6)
17.312730583333334,SPI,MOSI: s (0x73)
17.313633083333333,SPI,MOSI: '1' (0x01)
17.314536041666667,SPI,MOSI: '3' (0x03)
17.315438875000002,SPI,MOSI: ' ' (0x20)
17.316341833333333,SPI,MOSI: ' ' (0x20)
17.317244791666667,SPI,MOSI: w (0x77)
17.318147249999999,SPI,MOSI: w (0x77)
17.319049708333335,SPI,MOSI: w (0x77)
17.319952125000000,SPI,MOSI: . (0x2E)
17.320854791666665,SPI,MOSI: i (0x69)
17.321757458333334,SPI,MOSI: M (0x4D)
17.322660083333332,SPI,MOSI: I (0x49)
17.323562833333334,SPI,MOSI: V (0x56)
17.324465499999999,SPI,MOSI: . (0x2E)
17.325368166666667,SPI,MOSI: c (0x63)
17.326270791666666,SPI,MOSI: a (0x61)
17.327173666666667,SPI,MOSI: ' ' (0x20)
17.328076583333335,SPI,MOSI: ' ' (0x20)
17.328979541666666,SPI,MOSI: ' ' (0x20)
17.329882500000000,SPI,MOSI: '0' (0x00)
17.330785541666668,SPI,MOSI: '0' (0x00)
17.331688583333332,SPI,MOSI: ' ' (0x20)
17.332591541666666,SPI,MOSI: ' ' (0x20)
17.333494500000000,SPI,MOSI: ' ' (0x20)
17.334397458333335,SPI,MOSI: ' ' (0x20)
17.335300416666666,SPI,MOSI: ' ' (0x20)
17.336203375000000,SPI,MOSI: ' ' (0x20)
17.337106291666668,SPI,MOSI: ' ' (0x20)
17.338009249999999,SPI,MOSI: ' ' (0x20)
17.338912208333333,SPI,MOSI: ' ' (0x20)
17.339815125000001,SPI,MOSI: ' ' (0x20)
17.340718041666666,SPI,MOSI: ' ' (0x20)
17.341621000000000,SPI,MOSI: ' ' (0x20)
17.342523958333334,SPI,MOSI: ' ' (0x20)
17.343426916666665,SPI,MOSI: ' ' (0x20)
17.344329875000000,SPI,MOSI: ' ' (0x20)
17.345232791666668,SPI,MOSI: ' ' (0x20)
17.346135749999998,SPI,MOSI: ' ' (0x20)
17.347038708333333,SPI,MOSI: ' ' (0x20)
17.364624791666667,SPI,MOSI: '194' (0xC2)
17.365426208333332,SPI,MOSI: '29' (0x1D)
17.366196500000001,SPI,MOSI: s (0x73)
17.367068458333332,SPI,MOSI: '0' (0x00)
17.367848666666667,SPI,MOSI: ' ' (0x20)
17.368699458333332,SPI,MOSI: '16' (0x10)
17.369415416666666,SPI,MOSI: '0' (0x00)
17.370202249999998,SPI,MOSI: ' ' (0x20)
17.370924500000001,SPI,MOSI: '0' (0x00)
17.371695750000001,SPI,MOSI: '0' (0x00)
17.372459416666668,SPI,MOSI: ' ' (0x20)
17.373287999999999,SPI,MOSI: ' ' (0x20)
17.373999958333332,SPI,MOSI: ' ' (0x20)
17.374715541666667,SPI,MOSI: ' ' (0x20)
17.375484499999999,SPI,MOSI: ' ' (0x20)
17.376259083333334,SPI,MOSI: ' ' (0x20)
17.376974708333332,SPI,MOSI: ' ' (0x20)
17.377737000000000,SPI,MOSI: ' ' (0x20)
17.378442041666666,SPI,MOSI: ' ' (0x20)
17.379285833333334,SPI,MOSI: ' ' (0x20)
17.380083958333334,SPI,MOSI: ' ' (0x20)
17.380852916666665,SPI,MOSI: ' ' (0x20)
17.381567499999999,SPI,MOSI: ' ' (0x20)
17.382314624999999,SPI,MOSI: ' ' (0x20)
17.400887666666666,SPI,MOSI: '194' (0xC2)
17.401588374999999,SPI,MOSI: '29' (0x1D)
17.402554416666668,SPI,MOSI: s (0x73)
17.403389958333332,SPI,MOSI: '0' (0x00)
17.404244416666668,SPI,MOSI: ! (0x21)
17.404986500000000,SPI,MOSI: '16' (0x10)
17.405931708333334,SPI,MOSI: '0' (0x00)
17.406663875000000,SPI,MOSI: ! (0x21)
17.407508374999999,SPI,MOSI: '0' (0x00)
17.408372750000002,SPI,MOSI: '0' (0x00)
17.409135375000002,SPI,MOSI: ' ' (0x20)
17.410000416666666,SPI,MOSI: ' ' (0x20)
17.410770708333335,SPI,MOSI: ' ' (0x20)
17.411504874999999,SPI,MOSI: ' ' (0x20)
17.412220125000001,SPI,MOSI: ' ' (0x20)
17.413053708333333,SPI,MOSI: ' ' (0x20)
17.413791833333335,SPI,MOSI: ' ' (0x20)
17.414621083333333,SPI,MOSI: ' ' (0x20)
17.415530833333332,SPI,MOSI: ' ' (0x20)
17.416319666666666,SPI,MOSI: ' ' (0x20)
17.417096874999999,SPI,MOSI: ' ' (0x20)
17.418005000000001,SPI,MOSI: ' ' (0x20)
17.418769958333332,SPI,MOSI: ' ' (0x20)
17.419621416666665,SPI,MOSI: ' ' (0x20)
17.438213666666666,SPI,MOSI: '194' (0xC2)
17.438976000000000,SPI,MOSI: '29' (0x1D)
17.439802583333332,SPI,MOSI: s (0x73)
17.440700750000001,SPI,MOSI: '0' (0x00)
17.441476333333334,SPI,MOSI: " (0x22)
17.442197208333333,SPI,MOSI: '16' (0x10)
17.442926083333333,SPI,MOSI: '0' (0x00)
17.443757666666666,SPI,MOSI: " (0x22)
17.444677333333335,SPI,MOSI: '0' (0x00)
17.445400249999999,SPI,MOSI: '0' (0x00)
17.446250708333334,SPI,MOSI: ' ' (0x20)
17.447016000000001,SPI,MOSI: ' ' (0x20)
17.447755791666665,SPI,MOSI: ' ' (0x20)
17.448481333333334,SPI,MOSI: ' ' (0x20)
17.449220458333333,SPI,MOSI: ' ' (0x20)
17.450000041666666,SPI,MOSI: ' ' (0x20)
17.450860083333332,SPI,MOSI: ' ' (0x20)
17.451732083333333,SPI,MOSI: ' ' (0x20)
17.452521541666666,SPI,MOSI: ' ' (0x20)
17.453369041666665,SPI,MOSI: ' ' (0x20)
17.454251291666665,SPI,MOSI: ' ' (0x20)
17.455045750000000,SPI,MOSI: ' ' (0x20)
17.455950208333334,SPI,MOSI: ' ' (0x20)
17.456861916666668,SPI,MOSI: ' ' (0x20)
17.475362749999999,SPI,MOSI: '194' (0xC2)
17.476110833333333,SPI,MOSI: '29' (0x1D)
17.476999374999998,SPI,MOSI: s (0x73)
17.477766666666668,SPI,MOSI: '0' (0x00)
17.478551208333332,SPI,MOSI: # (0x23)
17.479455000000002,SPI,MOSI: '16' (0x10)
17.480242499999999,SPI,MOSI: '0' (0x00)
17.481087625000001,SPI,MOSI: # (0x23)
17.481990750000001,SPI,MOSI: '0' (0x00)
17.482922041666665,SPI,MOSI: '0' (0x00)
17.483721791666667,SPI,MOSI: ' ' (0x20)
17.484574583333334,SPI,MOSI: ' ' (0x20)
17.485421375000001,SPI,MOSI: ' ' (0x20)
17.486199291666665,SPI,MOSI: ' ' (0x20)
17.487072583333333,SPI,MOSI: ' ' (0x20)
17.487850458333334,SPI,MOSI: ' ' (0x20)
17.488552500000001,SPI,MOSI: ' ' (0x20)
17.489252874999998,SPI,MOSI: ' ' (0x20)
17.490074499999999,SPI,MOSI: ' ' (0x20)
17.490976624999998,SPI,MOSI: ' ' (0x20)
17.491741625000000,SPI,MOSI: ' ' (0x20)
17.492578458333334,SPI,MOSI: ' ' (0x20)
17.493345416666667,SPI,MOSI: ' ' (0x20)
17.494094166666667,SPI,MOSI: ' ' (0x20)
17.512639708333332,SPI,MOSI: '194' (0xC2)
17.513371875000001,SPI,MOSI: '29' (0x1D)
17.514237916666666,SPI,MOSI: s (0x73)
17.514937625000002,SPI,MOSI: '0' (0x00)
17.515738375000002,SPI,MOSI: $ (0x24)
17.516506000000000,SPI,MOSI: '16' (0x10)
17.517312041666667,SPI,MOSI: '0' (0x00)
17.518025666666666,SPI,MOSI: $ (0x24)
17.518741625000001,SPI,MOSI: '0' (0x00)
17.519507250000000,SPI,MOSI: '0' (0x00)
17.520279833333333,SPI,MOSI: ' ' (0x20)
17.520996791666665,SPI,MOSI: ' ' (0x20)
17.521748500000001,SPI,MOSI: ' ' (0x20)
17.522500874999999,SPI,MOSI: ' ' (0x20)
17.523367583333332,SPI,MOSI: ' ' (0x20)
17.524264083333332,SPI,MOSI: ' ' (0x20)
17.524983333333335,SPI,MOSI: ' ' (0x20)
17.525839749999999,SPI,MOSI: ' ' (0x20)
17.526617958333333,SPI,MOSI: ' ' (0x20)
17.527396166666666,SPI,MOSI: ' ' (0x20)
17.528136291666666,SPI,MOSI: ' ' (0x20)
17.528861541666668,SPI,MOSI: ' ' (0x20)
17.529713958333332,SPI,MOSI: ' ' (0x20)
17.530489541666668,SPI,MOSI: ' ' (0x20)
17.548925749999999,SPI,MOSI: '194' (0xC2)
17.549637708333332,SPI,MOSI: '29' (0x1D)
17.550456708333332,SPI,MOSI: s (0x73)
17.551177291666665,SPI,MOSI: '0' (0x00)
17.551957500000000,SPI,MOSI: % (0x25)
17.552726416666665,SPI,MOSI: '16' (0x10)
17.553589791666667,SPI,MOSI: '0' (0x00)
17.554479000000001,SPI,MOSI: % (0x25)
17.555280083333333,SPI,MOSI: '0' (0x00)
17.556075875000001,SPI,MOSI: '0' (0x00)
17.556876625000001,SPI,MOSI: ' ' (0x20)
17.557577666666667,SPI,MOSI: ' ' (0x20)
17.558280041666666,SPI,MOSI: ' ' (0x20)
17.559064875000001,SPI,MOSI: ' ' (0x20)
17.559768250000001,SPI,MOSI: ' ' (0x20)
17.560540833333334,SPI,MOSI: ' ' (0x20)
17.561263083333333,SPI,MOSI: ' ' (0x20)
17.562051875000002,SPI,MOSI: ' ' (0x20)
17.562827458333334,SPI,MOSI: ' ' (0x20)
17.563681875000000,SPI,MOSI: ' ' (0x20)
17.564592958333332,SPI,MOSI: ' ' (0x20)
17.565523916666667,SPI,MOSI: ' ' (0x20)
17.566250458333332,SPI,MOSI: ' ' (0x20)
17.567116166666668,SPI,MOSI: ' ' (0x20)
17.585252208333333,SPI,MOSI: '194' (0xC2)
17.586142416666668,SPI,MOSI: '29' (0x1D)
17.586893791666668,SPI,MOSI: s (0x73)
17.587757166666666,SPI,MOSI: '0' (0x00)
17.588541708333334,SPI,MOSI: & (0x26)
17.589257958333334,SPI,MOSI: '16' (0x10)
17.589977208333334,SPI,MOSI: '0' (0x00)
17.590778624999999,SPI,MOSI: & (0x26)
17.591509833333333,SPI,MOSI: '0' (0x00)
17.592309250000000,SPI,MOSI: '0' (0x00)
17.593077208333334,SPI,MOSI: ' ' (0x20)
17.593911416666668,SPI,MOSI: ' ' (0x20)
17.594797000000000,SPI,MOSI: ' ' (0x20)
17.595515916666667,SPI,MOSI: ' ' (0x20)
17.596276249999999,SPI,MOSI: ' ' (0x20)
17.597013375000000,SPI,MOSI: ' ' (0x20)
17.597830041666668,SPI,MOSI: ' ' (0x20)
17.598608916666667,SPI,MOSI: ' ' (0x20)
17.599310958333334,SPI,MOSI: ' ' (0x20)
17.600049416666668,SPI,MOSI: ' ' (0x20)
17.600836583333333,SPI,MOSI: ' ' (0x20)
17.601617791666666,SPI,MOSI: ' ' (0x20)
17.602382124999998,SPI,MOSI: ' ' (0x20)
17.603088124999999,SPI,MOSI: ' ' (0x20)
17.621484250000002,SPI,MOSI: '194' (0xC2)
17.622450958333335,SPI,MOSI: '29' (0x1D)
17.623165250000000,SPI,MOSI: s (0x73)
17.624047166666667,SPI,MOSI: '0' (0x00)
17.624939041666668,SPI,MOSI: ' (0x27)
17.625645041666665,SPI,MOSI: '16' (0x10)
17.626506416666668,SPI,MOSI: '0' (0x00)
17.627275708333332,SPI,MOSI: ' (0x27)
17.628036375000001,SPI,MOSI: '0' (0x00)
17.628748333333334,SPI,MOSI: '0' (0x00)
17.629510000000000,SPI,MOSI: ' ' (0x20)
17.630264708333332,SPI,MOSI: ' ' (0x20)
17.631094291666667,SPI,MOSI: ' ' (0x20)
17.631870500000002,SPI,MOSI: ' ' (0x20)
17.632577500000000,SPI,MOSI: ' ' (0x20)
17.633315333333332,SPI,MOSI: ' ' (0x20)
17.634180000000001,SPI,MOSI: ' ' (0x20)
17.635003625000000,SPI,MOSI: ' ' (0x20)
17.635789791666667,SPI,MOSI: ' ' (0x20)
17.636607791666666,SPI,MOSI: ' ' (0x20)
17.637389666666667,SPI,MOSI: ' ' (0x20)
17.638117541666666,SPI,MOSI: ' ' (0x20)
17.638850041666668,SPI,MOSI: ' ' (0x20)
17.639580208333335,SPI,MOSI: ' ' (0x20)
17.657708000000000,SPI,MOSI: '194' (0xC2)
17.658470958333332,SPI,MOSI: '29' (0x1D)
17.659279000000002,SPI,MOSI: s (0x73)
17.660015500000000,SPI,MOSI: '0' (0x00)
17.660741375000001,SPI,MOSI: ( (0x28)
17.661476541666666,SPI,MOSI: '16' (0x10)
17.662338250000001,SPI,MOSI: '0' (0x00)
17.663092625000001,SPI,MOSI: ( (0x28)
17.663854958333335,SPI,MOSI: '0' (0x00)
17.664557958333333,SPI,MOSI: '0' (0x00)
17.665310999999999,SPI,MOSI: ' ' (0x20)
17.666120374999998,SPI,MOSI: ' ' (0x20)
17.666883041666665,SPI,MOSI: ' ' (0x20)
17.667752041666667,SPI,MOSI: ' ' (0x20)
17.668526624999998,SPI,MOSI: ' ' (0x20)
17.669311125000000,SPI,MOSI: ' ' (0x20)
17.670028083333332,SPI,MOSI: ' ' (0x20)
17.670798666666666,SPI,MOSI: ' ' (0x20)
17.671549083333332,SPI,MOSI: ' ' (0x20)
17.672394208333333,SPI,MOSI: ' ' (0x20)
17.673180041666665,SPI,MOSI: ' ' (0x20)
17.673946375000000,SPI,MOSI: ' ' (0x20)
17.674654666666665,SPI,MOSI: ' ' (0x20)
17.675387833333332,SPI,MOSI: ' ' (0x20)
17.694024500000001,SPI,MOSI: '194' (0xC2)
17.694773541666667,SPI,MOSI: '29' (0x1D)
17.695536874999998,SPI,MOSI: s (0x73)
17.696326708333334,SPI,MOSI: '0' (0x00)
17.697034333333335,SPI,MOSI: ) (0x29)
17.697755250000000,SPI,MOSI: '16' (0x10)
17.698547083333334,SPI,MOSI: '0' (0x00)
17.699318666666667,SPI,MOSI: ) (0x29)
17.700096250000001,SPI,MOSI: '0' (0x00)
17.700797916666666,SPI,MOSI: '0' (0x00)
17.701566875000001,SPI,MOSI: ' ' (0x20)
17.702282833333335,SPI,MOSI: ' ' (0x20)
17.703082916666666,SPI,MOSI: ' ' (0x20)
17.703784958333333,SPI,MOSI: ' ' (0x20)
17.704594624999999,SPI,MOSI: ' ' (0x20)
17.705308583333334,SPI,MOSI: ' ' (0x20)
17.706080208333333,SPI,MOSI: ' ' (0x20)
17.706845166666668,SPI,MOSI: ' ' (0x20)
17.707664125000001,SPI,MOSI: ' ' (0x20)
17.708378083333333,SPI,MOSI: ' ' (0x20)
17.709115250000000,SPI,MOSI: ' ' (0x20)
17.709867958333334,SPI,MOSI: ' ' (0x20)
17.710649499999999,SPI,MOSI: ' ' (0x20)
17.711365416666666,SPI,MOSI: ' ' (0x20)
17.729215916666668,SPI,MOSI: '194' (0xC2)
17.729995124999999,SPI,MOSI: '29' (0x1D)
17.730779625000000,SPI,MOSI: s (0x73)
17.731549916666665,SPI,MOSI: '0' (0x00)
17.732269166666665,SPI,MOSI: * (0x2A)
17.733009291666665,SPI,MOSI: '16' (0x10)
17.733865708333333,SPI,MOSI: '0' (0x00)
17.734787041666667,SPI,MOSI: * (0x2A)
17.735735250000001,SPI,MOSI: '0' (0x00)
17.736473708333332,SPI,MOSI: '0' (0x00)
17.737293999999999,SPI,MOSI: ' ' (0x20)
17.738128875000001,SPI,MOSI: ' ' (0x20)
17.738905124999999,SPI,MOSI: ' ' (0x20)
17.739804916666667,SPI,MOSI: ' ' (0x20)
17.740582166666666,SPI,MOSI: ' ' (0x20)
17.741392541666666,SPI,MOSI: ' ' (0x20)
17.742161791666668,SPI,MOSI: ' ' (0x20)
17.742909874999999,SPI,MOSI: ' ' (0x20)
17.743859041666667,SPI,MOSI: ' ' (0x20)
17.744635291666668,SPI,MOSI: ' ' (0x20)
17.745340625000001,SPI,MOSI: ' ' (0x20)
17.746061541666666,SPI,MOSI: ' ' (0x20)
17.746889791666668,SPI,MOSI: ' ' (0x20)
17.747654125000000,SPI,MOSI: ' ' (0x20)
17.765461500000001,SPI,MOSI: '194' (0xC2)
17.766242041666668,SPI,MOSI: '29' (0x1D)
17.767038833333334,SPI,MOSI: s (0x73)
17.767816041666666,SPI,MOSI: '0' (0x00)
17.768526708333333,SPI,MOSI: + (0x2B)
17.769251916666665,SPI,MOSI: '16' (0x10)
17.770039749999999,SPI,MOSI: '0' (0x00)
17.770808375000001,SPI,MOSI: + (0x2B)
17.771587250000000,SPI,MOSI: '0' (0x00)
17.772293916666666,SPI,MOSI: '0' (0x00)
17.773066166666666,SPI,MOSI: ' ' (0x20)
17.773768541666666,SPI,MOSI: ' ' (0x20)
17.774587499999999,SPI,MOSI: ' ' (0x20)
17.775375000000000,SPI,MOSI: ' ' (0x20)
17.776094916666668,SPI,MOSI: ' ' (0x20)
17.776810541666666,SPI,MOSI: ' ' (0x20)
17.777573208333333,SPI,MOSI: ' ' (0x20)
17.778339833333334,SPI,MOSI: ' ' (0x20)
17.779174375000000,SPI,MOSI: ' ' (0x20)
17.780020833333332,SPI,MOSI: ' ' (0x20)
17.780821583333335,SPI,MOSI: ' ' (0x20)
17.781670041666668,SPI,MOSI: ' ' (0x20)
17.782372083333332,SPI,MOSI: ' ' (0x20)
17.783155916666665,SPI,MOSI: ' ' (0x20)
17.801681583333334,SPI,MOSI: '194' (0xC2)
17.802420750000000,SPI,MOSI: '29' (0x1D)
17.803280125000001,SPI,MOSI: s (0x73)
17.804060666666668,SPI,MOSI: '1' (0x01)
17.804762708333332,SPI,MOSI: " (0x22)
17.805499500000000,SPI,MOSI: '16' (0x10)
17.806273416666667,SPI,MOSI: '1' (0x01)
17.807022166666666,SPI,MOSI: " (0x22)
17.807824249999999,SPI,MOSI: ' ' (0x20)
17.808592208333334,SPI,MOSI: ' ' (0x20)
17.809351541666668,SPI,MOSI: ' ' (0x20)
17.810108583333335,SPI,MOSI: ' ' (0x20)
17.810879166666666,SPI,MOSI: ' ' (0x20)
17.811811124999998,SPI,MOSI: ' ' (0x20)
17.812525749999999,SPI,MOSI: ' ' (0x20)
17.813362916666666,SPI,MOSI: ' ' (0x20)
17.814131541666665,SPI,MOSI: ' ' (0x20)
17.814839541666668,SPI,MOSI: ' ' (0x20)
17.815573375000000,SPI,MOSI: ' ' (0x20)
17.816363500000001,SPI,MOSI: ' ' (0x20)
17.817139416666667,SPI,MOSI: ' ' (0x20)
17.817923291666666,SPI,MOSI: ' ' (0x20)
17.818700166666666,SPI,MOSI: ' ' (0x20)
17.819424083333335,SPI,MOSI: ' ' (0x20)
17.828961208333332,SPI,MOSI: '0' (0x00)
17.829660583333332,SPI,MOSI: '30' (0x1E)
17.830458041666667,SPI,MOSI: '236' (0xEC)
17.831183583333335,SPI,MOSI: '143' (0x8F)
17.831997250000001,SPI,MOSI: '255' (0xFF)
17.832864624999999,SPI,MOSI: '199' (0xC7)
17.833627916666668,SPI,MOSI: '199' (0xC7)
17.834554458333333,SPI,MOSI: '252' (0xFC)
17.835456874999998,SPI,MOSI: '198' (0xC6)
17.836359500000000,SPI,MOSI: s (0x73)
17.837262083333332,SPI,MOSI: '1' (0x01)
17.838165125000000,SPI,MOSI: '3' (0x03)
17.839067958333334,SPI,MOSI: ' ' (0x20)
17.839970916666665,SPI,MOSI: ' ' (0x20)
17.840873875000000,SPI,MOSI: w (0x77)
17.841776333333332,SPI,MOSI: w (0x77)
17.842678750000001,SPI,MOSI: w (0x77)
17.843581208333333,SPI,MOSI: . (0x2E)
17.844483875000002,SPI,MOSI: i (0x69)
17.845386541666667,SPI,MOSI: M (0x4D)
17.846289166666665,SPI,MOSI: I (0x49)
17.847191916666667,SPI,MOSI: V (0x56)
17.848094583333335,SPI,MOSI: . (0x2E)
17.848997208333333,SPI,MOSI: c (0x63)
17.849899874999998,SPI,MOSI: a (0x61)
17.850802583333333,SPI,MOSI: ' ' (0x20)
17.851705541666668,SPI,MOSI: ' ' (0x20)
17.852608458333332,SPI,MOSI: ' ' (0x20)
17.853511416666667,SPI,MOSI: '0' (0x00)
17.854414458333334,SPI,MOSI: '0' (0x00)
17.855317541666668,SPI,MOSI: ' ' (0x20)
17.856220458333333,SPI,MOSI: ' ' (0x20)
17.857123416666667,SPI,MOSI: ' ' (0x20)
17.858026375000001,SPI,MOSI: ' ' (0x20)
17.858929333333332,SPI,MOSI: ' ' (0x20)
17.859832291666667,SPI,MOSI: ' ' (0x20)
17.860735250000001,SPI,MOSI: ' ' (0x20)
17.861638166666665,SPI,MOSI: ' ' (0x20)
17.862541125000000,SPI,MOSI: ' ' (0x20)
17.863444083333334,SPI,MOSI: ' ' (0x20)
17.864347124999998,SPI,MOSI: ' ' (0x20)
17.865250083333333,SPI,MOSI: ' ' (0x20)
17.866153041666667,SPI,MOSI: ' ' (0x20)
17.867056000000002,SPI,MOSI: ' ' (0x20)
17.867958916666666,SPI,MOSI: ' ' (0x20)
17.868861875000000,SPI,MOSI: ' ' (0x20)
17.869764833333335,SPI,MOSI: ' ' (0x20)
17.870667791666666,SPI,MOSI: ' ' (0x20)
17.888387250000001,SPI,MOSI: '197' (0xC5)
17.889103208333335,SPI,MOSI: '25' (0x19)
17.889909916666667,SPI,MOSI: s (0x73)
17.890626500000000,SPI,MOSI: '1' (0x01)
17.891382875000001,SPI,MOSI: '4' (0x04)
17.892180333333332,SPI,MOSI: '16' (0x10)
17.892989666666665,SPI,MOSI: '1' (0x01)
17.893856041666666,SPI,MOSI: '4' (0x04)
17.894624333333333,SPI,MOSI: S (0x53)
17.895452250000002,SPI,MOSI: e (0x65)
17.896153916666666,SPI,MOSI: r (0x72)
17.896953041666666,SPI,MOSI: i (0x69)
17.897721333333333,SPI,MOSI: a (0x61)
17.898485958333332,SPI,MOSI: l (0x6C)
17.899202208333332,SPI,MOSI: : (0x3A)
17.899975166666668,SPI,MOSI: ' ' (0x20)
17.900703333333333,SPI,MOSI: 0 (0x30)
17.901478250000000,SPI,MOSI: 1 (0x31)
17.902245874999998,SPI,MOSI: 8 (0x38)
17.903056249999999,SPI,MOSI: D (0x44)
17.903768541666668,SPI,MOSI: 8 (0x38)
17.904500375000001,SPI,MOSI: 7 (0x37)
17.905266041666668,SPI,MOSI: '0' (0x00)
17.906049208333332,SPI,MOSI: '0' (0x00)
17.906768791666668,SPI,MOSI: ' ' (0x20)
17.907473458333332,SPI,MOSI: ' ' (0x20)
17.908220541666665,SPI,MOSI: ' ' (0x20)
17.909065041666668,SPI,MOSI: ' ' (0x20)
17.909853875000000,SPI,MOSI: ' ' (0x20)
17.910630791666666,SPI,MOSI: ' ' (0x20)
17.911486208333333,SPI,MOSI: ' ' (0x20)
17.912211750000001,SPI,MOSI: ' ' (0x20)
17.913028708333332,SPI,MOSI: ' ' (0x20)
17.913744333333334,SPI,MOSI: ' ' (0x20)
17.914560666666667,SPI,MOSI: ' ' (0x20)
17.915329624999998,SPI,MOSI: ' ' (0x20)
17.916113458333335,SPI,MOSI: ' ' (0x20)
17.916829083333333,SPI,MOSI: ' ' (0x20)
17.917545000000000,SPI,MOSI: ' ' (0x20)
17.918302041666667,SPI,MOSI: ' ' (0x20)
17.919151833333334,SPI,MOSI: ' ' (0x20)
17.920025791666667,SPI,MOSI: ' ' (0x20)
17.920808999999998,SPI,MOSI: ' ' (0x20)
17.921645208333334,SPI,MOSI: ' ' (0x20)
18.387892791666665,SPI,MOSI: '193' (0xC1)
18.388704833333332,SPI,MOSI: '27' (0x1B)
18.389495291666666,SPI,MOSI: '127' (0x7F)
18.390418291666666,SPI,MOSI: '1' (0x01)
18.391142833333333,SPI,MOSI: '8' (0x08)
18.391974416666667,SPI,MOSI: '16' (0x10)
18.392743708333334,SPI,MOSI: '0' (0x00)
18.393482166666665,SPI,MOSI: '195' (0xC3)
18.394214999999999,SPI,MOSI: '1' (0x01)
18.394934249999999,SPI,MOSI: '0' (0x00)
18.395714125000001,SPI,MOSI: '129' (0x81)
18.396555291666665,SPI,MOSI: '1' (0x01)
18.397400125000001,SPI,MOSI: '255' (0xFF)
18.398184958333335,SPI,MOSI: '0' (0x00)
19.522386999999998,SPI,MOSI: '193' (0xC1)
19.523208958333335,SPI,MOSI: '27' (0x1B)
19.524013041666667,SPI,MOSI: '127' (0x7F)
19.524895291666667,SPI,MOSI: '1' (0x01)
19.525674500000001,SPI,MOSI: '8' (0x08)
19.526518666666668,SPI,MOSI: '16' (0x10)
19.527301833333333,SPI,MOSI: '0' (0x00)
19.528004208333332,SPI,MOSI: '195' (0xC3)
19.528740333333332,SPI,MOSI: '1' (0x01)
19.529528166666665,SPI,MOSI: '0' (0x00)
19.530291166666668,SPI,MOSI: '129' (0x81)
19.531076333333335,SPI,MOSI: '1' (0x01)
19.531871124999999,SPI,MOSI: '255' (0xFF)
19.532580416666665,SPI,MOSI: '0' (0x00)
20.668101875000001,SPI,MOSI: '193' (0xC1)
20.668893666666666,SPI,MOSI: '27' (0x1B)
20.669709000000001,SPI,MOSI: '127' (0x7F)
20.670537249999999,SPI,MOSI: '1' (0x01)
20.671243583333332,SPI,MOSI: '8' (0x08)
20.672054916666667,SPI,MOSI: '16' (0x10)
20.672786750000000,SPI,MOSI: '0' (0x00)
20.673643500000001,SPI,MOSI: '195' (0xC3)
20.674428666666667,SPI,MOSI: '1' (0x01)
20.675195291666668,SPI,MOSI: '0' (0x00)
20.675896666666667,SPI,MOSI: '129' (0x81)
20.676681166666668,SPI,MOSI: '1' (0x01)
20.677395458333333,SPI,MOSI: '255' (0xFF)
20.678216416666668,SPI,MOSI: '0' (0x00)
21.803634333333335,SPI,MOSI: '193' (0xC1)
21.804340666666668,SPI,MOSI: '27' (0x1B)
21.805142750000002,SPI,MOSI: '127' (0x7F)
21.805887500000001,SPI,MOSI: '1' (0x01)
21.806732291666666,SPI,MOSI: '8' (0x08)
21.807512166666665,SPI,MOSI: '16' (0x10)
21.808281458333333,SPI,MOSI: '0' (0x00)
21.808990416666667,SPI,MOSI: '195' (0xC3)
21.809720958333333,SPI,MOSI: '1' (0x01)
21.810515083333332,SPI,MOSI: '0' (0x00)
21.811284333333333,SPI,MOSI: '129' (0x81)
21.812030083333333,SPI,MOSI: '1' (0x01)
21.812796708333334,SPI,MOSI: '255' (0xFF)
21.813511999999999,SPI,MOSI: '0' (0x00)
21.860705041666666,SPI,MOSI: '0' (0x00)
21.861537250000001,SPI,MOSI: '30' (0x1E)
21.862331041666668,SPI,MOSI: '236' (0xEC)
21.863158625000001,SPI,MOSI: '143' (0x8F)
21.864022333333335,SPI,MOSI: '143' (0x8F)
21.865198416666665,SPI,MOSI: '0' (0x00)
21.866398083333333,SPI,MOSI: '138' (0x8A)
21.867597791666668,SPI,MOSI: '175' (0xAF)
21.868797458333333,SPI,MOSI: 7 (0x37)
21.870007166666667,SPI,MOSI: '1' (0x01)
22.941793458333333,SPI,MOSI: '193' (0xC1)
22.942550166666667,SPI,MOSI: '27' (0x1B)
22.943330041666666,SPI,MOSI: '127' (0x7F)
22.944043958333335,SPI,MOSI: '1' (0x01)
22.944797333333334,SPI,MOSI: '8' (0x08)
22.945509625000000,SPI,MOSI: '16' (0x10)
22.946310041666667,SPI,MOSI: '0' (0x00)
22.947082958333333,SPI,MOSI: '195' (0xC3)
22.947860166666668,SPI,MOSI: '1' (0x01)
22.948573124999999,SPI,MOSI: '0' (0x00)
22.949325166666668,SPI,MOSI: '129' (0x81)
22.950093124999999,SPI,MOSI: '1' (0x01)
22.950860083333332,SPI,MOSI: '255' (0xFF)
22.951566416666665,SPI,MOSI: '0' (0x00)
24.076723749999999,SPI,MOSI: '193' (0xC1)
24.077425458333334,SPI,MOSI: '27' (0x1B)
24.078229833333335,SPI,MOSI: '127' (0x7F)
24.079030916666667,SPI,MOSI: '1' (0x01)
24.079903208333334,SPI,MOSI: '8' (0x08)
24.080793083333333,SPI,MOSI: '16' (0x10)
24.081542791666667,SPI,MOSI: '0' (0x00)
24.082341875000001,SPI,MOSI: '195' (0xC3)
24.083110166666668,SPI,MOSI: '1' (0x01)
24.083867500000000,SPI,MOSI: '0' (0x00)
24.084580791666667,SPI,MOSI: '129' (0x81)
24.085519999999999,SPI,MOSI: '1' (0x01)
24.086370458333334,SPI,MOSI: '255' (0xFF)
24.087117541666668,SPI,MOSI: '0' (0x00)
25.220316791666665,SPI,MOSI: '193' (0xC1)
25.221122833333332,SPI,MOSI: '27' (0x1B)
25.221981208333332,SPI,MOSI: '127' (0x7F)
25.222831958333334,SPI,MOSI: '1' (0x01)
25.223600583333333,SPI,MOSI: '8' (0x08)
25.224458958333333,SPI,MOSI: '16' (0x10)
25.225238833333332,SPI,MOSI: '0' (0x00)
25.225963374999999,SPI,MOSI: '195' (0xC3)
25.226666708333333,SPI,MOSI: '1' (0x01)
25.227448583333334,SPI,MOSI: '0' (0x00)
25.228218166666668,SPI,MOSI: '129' (0x81)
25.228975833333333,SPI,MOSI: '1' (0x01)
25.229687458333334,SPI,MOSI: '255' (0xFF)
25.230457083333334,SPI,MOSI: '0' (0x00)
26.350410499999999,SPI,MOSI: '193' (0xC1)
26.351130416666667,SPI,MOSI: '27' (0x1B)
26.351924499999999,SPI,MOSI: '127' (0x7F)
26.352627500000001,SPI,MOSI: '1' (0x01)
26.353430916666667,SPI,MOSI: '8' (0x08)
26.354138208333332,SPI,MOSI: '16' (0x10)
26.354928041666668,SPI,MOSI: '0' (0x00)
26.355647291666667,SPI,MOSI: '195' (0xC3)
26.356418541666667,SPI,MOSI: '1' (0x01)
26.357203041666665,SPI,MOSI: '0' (0x00)
26.358050500000001,SPI,MOSI: '129' (0x81)
26.358929750000001,SPI,MOSI: '1' (0x01)
26.359732125000001,SPI,MOSI: '255' (0xFF)
26.360516666666665,SPI,MOSI: '0' (0x00)
27.484960791666666,SPI,MOSI: '193' (0xC1)
27.485755874999999,SPI,MOSI: '27' (0x1B)
27.486479750000001,SPI,MOSI: '127' (0x7F)
27.487231791666666,SPI,MOSI: '1' (0x01)
27.487994458333333,SPI,MOSI: '8' (0x08)
27.488887958333333,SPI,MOSI: '16' (0x10)
27.489672458333335,SPI,MOSI: '0' (0x00)
27.490515250000001,SPI,MOSI: '195' (0xC3)
27.491406125000001,SPI,MOSI: '1' (0x01)
27.492175041666666,SPI,MOSI: '0' (0x00)
27.493020166666668,SPI,MOSI: '129' (0x81)
27.493972291666665,SPI,MOSI: '1' (0x01)
27.494723041666667,SPI,MOSI: '255' (0xFF)
27.495543958333332,SPI,MOSI: '0' (0x00)
28.620909458333333,SPI,MOSI: '193' (0xC1)
28.621623374999999,SPI,MOSI: '27' (0x1B)
28.622541750000000,SPI,MOSI: '127' (0x7F)
28.623259958333332,SPI,MOSI: '1' (0x01)
28.624041833333333,SPI,MOSI: '8' (0x08)
28.624748791666665,SPI,MOSI: '16' (0x10)
28.625487916666668,SPI,MOSI: '0' (0x00)
28.626233666666668,SPI,MOSI: '195' (0xC3)
28.627064541666666,SPI,MOSI: '1' (0x01)
28.627839791666666,SPI,MOSI: '0' (0x00)
28.628613000000001,SPI,MOSI: '129' (0x81)
28.629314041666667,SPI,MOSI: '1' (0x01)
28.630061749999999,SPI,MOSI: '255' (0xFF)
28.630850916666667,SPI,MOSI: '0' (0x00)
28.938168958333332,SPI,MOSI: '192' (0xC0)
28.938868958333334,SPI,MOSI: '27' (0x1B)
28.939701833333334,SPI,MOSI: q (0x71)
28.940414791666665,SPI,MOSI: '0' (0x00)
28.941263541666668,SPI,MOSI: '0' (0x00)
28.942780208333332,SPI,MOSI: '16' (0x10)
29.756938583333334,SPI,MOSI: '193' (0xC1)
29.757679666666668,SPI,MOSI: '27' (0x1B)
29.758527125000001,SPI,MOSI: '127' (0x7F)
29.759293416666665,SPI,MOSI: '1' (0x01)
29.760092833333335,SPI,MOSI: '8' (0x08)
29.760822666666666,SPI,MOSI: '16' (0x10)
29.761572041666668,SPI,MOSI: '0' (0x00)
29.762343625000000,SPI,MOSI: '195' (0xC3)
29.763149333333335,SPI,MOSI: '1' (0x01)
29.763861916666666,SPI,MOSI: '0' (0x00)
29.764596416666667,SPI,MOSI: '129' (0x81)
29.765346458333333,SPI,MOSI: '1' (0x01)
29.766130291666666,SPI,MOSI: '255' (0xFF)
29.766868416666668,SPI,MOSI: '0' (0x00)
29.928229000000002,SPI,MOSI: '192' (0xC0)
29.929021458333334,SPI,MOSI: '27' (0x1B)
29.929818541666666,SPI,MOSI: q (0x71)
29.930518208333332,SPI,MOSI: '128' (0x80)
29.931304708333332,SPI,MOSI: '0' (0x00)
29.932714708333332,SPI,MOSI: '16' (0x10)
30.490736125000002,SPI,MOSI: '192' (0xC0)
30.491435458333335,SPI,MOSI: '26' (0x1A)
30.492248125000000,SPI,MOSI: t (0x74)
30.492962041666665,SPI,MOSI: * (0x2A)
30.493787625000000,SPI,MOSI: '144' (0x90)
30.895565999999999,SPI,MOSI: '193' (0xC1)
30.896377333333334,SPI,MOSI: '27' (0x1B)
30.897167458333332,SPI,MOSI: '127' (0x7F)
30.897867166666668,SPI,MOSI: '1' (0x01)
30.898579750000000,SPI,MOSI: '8' (0x08)
30.899344708333334,SPI,MOSI: '16' (0x10)
30.900178916666668,SPI,MOSI: '0' (0x00)
30.901023708333334,SPI,MOSI: '195' (0xC3)
30.901811166666668,SPI,MOSI: '1' (0x01)
30.902675208333335,SPI,MOSI: '0' (0x00)
30.903455708333333,SPI,MOSI: '129' (0x81)
30.904175625000001,SPI,MOSI: '1' (0x01)
30.904876625000000,SPI,MOSI: '255' (0xFF)
30.905668416666668,SPI,MOSI: '0' (0x00)
31.911734333333332,SPI,MOSI: '0' (0x00)
31.912493333333334,SPI,MOSI: '30' (0x1E)
31.913336458333333,SPI,MOSI: '236' (0xEC)
31.914198833333334,SPI,MOSI: '143' (0x8F)
31.914961458333334,SPI,MOSI: '143' (0x8F)
31.916140291666668,SPI,MOSI: '0' (0x00)
31.917339999999999,SPI,MOSI: '138' (0x8A)
31.918539666666668,SPI,MOSI: '175' (0xAF)
31.919739374999999,SPI,MOSI: 7 (0x37)
31.920949041666667,SPI,MOSI: '1' (0x01)
32.030544208333332,SPI,MOSI: '193' (0xC1)
32.031277666666668,SPI,MOSI: '27' (0x1B)
32.032201333333333,SPI,MOSI: '127' (0x7F)
32.032916583333332,SPI,MOSI: '1' (0x01)
32.033702750000003,SPI,MOSI: '8' (0x08)
32.034506791666665,SPI,MOSI: '16' (0x10)
32.035218708333332,SPI,MOSI: '0' (0x00)
32.035932000000003,SPI,MOSI: '195' (0xC3)
32.036714166666670,SPI,MOSI: '1' (0x01)
32.037609666666668,SPI,MOSI: '0' (0x00)
32.038391833333336,SPI,MOSI: '129' (0x81)
32.039195874999997,SPI,MOSI: '1' (0x01)
32.040172166666665,SPI,MOSI: '255' (0xFF)
32.040958666666668,SPI,MOSI: '0' (0x00)
32.563900708333335,SPI,MOSI: '192' (0xC0)
32.564606666666670,SPI,MOSI: '29' (0x1D)
32.565377583333330,SPI,MOSI: w (0x77)
32.566106750000003,SPI,MOSI: '129' (0x81)
32.566953875000003,SPI,MOSI: '7' (0x07)
32.567732083333333,SPI,MOSI: '16' (0x10)
32.568500333333333,SPI,MOSI: '129' (0x81)
32.569200666666667,SPI,MOSI: '7' (0x07)
33.170160750000001,SPI,MOSI: '193' (0xC1)
33.170864750000000,SPI,MOSI: '27' (0x1B)
33.171656166666665,SPI,MOSI: '127' (0x7F)
33.172488375000000,SPI,MOSI: '1' (0x01)
33.173281166666669,SPI,MOSI: '8' (0x08)
33.174171000000001,SPI,MOSI: '16' (0x10)
33.174959500000000,SPI,MOSI: '0' (0x00)
33.175748624999997,SPI,MOSI: '195' (0xC3)
33.176450625000001,SPI,MOSI: '1' (0x01)
33.177249375000002,SPI,MOSI: '0' (0x00)
33.178026583333335,SPI,MOSI: '129' (0x81)
33.178816708333336,SPI,MOSI: '1' (0x01)
33.179714166666663,SPI,MOSI: '255' (0xFF)
33.180481749999998,SPI,MOSI: '0' (0x00)
33.242670208333337,SPI,MOSI: '192' (0xC0)
33.243403999999998,SPI,MOSI: '29' (0x1D)
33.244189166666665,SPI,MOSI: w (0x77)
33.244915041666665,SPI,MOSI: '129' (0x81)
33.245766791666668,SPI,MOSI: '8' (0x08)
33.246541666666666,SPI,MOSI: '16' (0x10)
33.247253958333332,SPI,MOSI: '129' (0x81)
33.247978458333336,SPI,MOSI: '8' (0x08)
33.877151625000003,SPI,MOSI: '192' (0xC0)
33.877913583333331,SPI,MOSI: '29' (0x1D)
33.878714625000001,SPI,MOSI: w (0x77)
33.879427249999999,SPI,MOSI: '129' (0x81)
33.880207416666664,SPI,MOSI: \t (0x09)
33.880945208333330,SPI,MOSI: '16' (0x10)
33.881707833333330,SPI,MOSI: '129' (0x81)
33.882491333333334,SPI,MOSI: \t (0x09)
34.303227041666666,SPI,MOSI: '193' (0xC1)
34.304155958333332,SPI,MOSI: '27' (0x1B)
34.304855666666668,SPI,MOSI: '127' (0x7F)
34.305694500000001,SPI,MOSI: '1' (0x01)
34.306461749999997,SPI,MOSI: '8' (0x08)
34.307226708333332,SPI,MOSI: '16' (0x10)
34.307943958333333,SPI,MOSI: '0' (0x00)
34.308688333333336,SPI,MOSI: '195' (0xC3)
34.309458916666664,SPI,MOSI: '1' (0x01)
34.310315625000001,SPI,MOSI: '0' (0x00)
34.311162416666669,SPI,MOSI: '129' (0x81)
34.312058874999998,SPI,MOSI: '1' (0x01)
34.312805625000003,SPI,MOSI: '255' (0xFF)
34.313588791666668,SPI,MOSI: '0' (0x00)
34.326892708333332,SPI,MOSI: '0' (0x00)
34.327594041666664,SPI,MOSI: '30' (0x1E)
34.328388791666669,SPI,MOSI: '236' (0xEC)
34.329339958333335,SPI,MOSI: '143' (0x8F)
34.330107541666663,SPI,MOSI: '143' (0x8F)
34.331284416666669,SPI,MOSI: '168' (0xA8)
34.332484125000001,SPI,MOSI: '140' (0x8C)
34.333683791666665,SPI,MOSI: '175' (0xAF)
34.334883499999997,SPI,MOSI: '204' (0xCC)
34.336093166666664,SPI,MOSI: '0' (0x00)
34.337302874999999,SPI,MOSI: '1' (0x01)
34.338512541666667,SPI,MOSI: '8' (0x08)
34.510677416666667,SPI,MOSI: '192' (0xC0)
34.511380416666668,SPI,MOSI: '29' (0x1D)
34.512146708333333,SPI,MOSI: w (0x77)
34.512860625000002,SPI,MOSI: '129' (0x81)
34.513712374999997,SPI,MOSI: \n (0x0A)
34.514516749999999,SPI,MOSI: '16' (0x10)
34.515224375000003,SPI,MOSI: '129' (0x81)
34.515939958333334,SPI,MOSI: \n (0x0A)
35.154195041666668,SPI,MOSI: '192' (0xC0)
35.154978541666665,SPI,MOSI: '29' (0x1D)
35.155685208333331,SPI,MOSI: w (0x77)
35.156396125000001,SPI,MOSI: '129' (0x81)
35.157245583333335,SPI,MOSI: '11' (0x0B)
35.158012499999998,SPI,MOSI: '16' (0x10)
35.158792041666665,SPI,MOSI: '129' (0x81)
35.159507291666664,SPI,MOSI: '11' (0x0B)
35.448709749999999,SPI,MOSI: '193' (0xC1)
35.449491583333334,SPI,MOSI: '27' (0x1B)
35.450340333333337,SPI,MOSI: '127' (0x7F)
35.451192083333332,SPI,MOSI: '1' (0x01)
35.451957666666665,SPI,MOSI: '8' (0x08)
35.452814416666669,SPI,MOSI: '16' (0x10)
35.453582666666669,SPI,MOSI: '0' (0x00)
35.454345291666669,SPI,MOSI: '195' (0xC3)
35.455058874999999,SPI,MOSI: '1' (0x01)
35.455814541666669,SPI,MOSI: '0' (0x00)
35.456579499999997,SPI,MOSI: '129' (0x81)
35.457472333333335,SPI,MOSI: '1' (0x01)
35.458404916666666,SPI,MOSI: '255' (0xFF)
35.459128083333333,SPI,MOSI: '0' (0x00)
35.973977374999997,SPI,MOSI: '192' (0xC0)
35.974694624999998,SPI,MOSI: '29' (0x1D)
35.975476125000000,SPI,MOSI: w (0x77)
35.976214249999998,SPI,MOSI: '129' (0x81)
35.977076916666668,SPI,MOSI: '12' (0x0C)
35.977847833333335,SPI,MOSI: '16' (0x10)
35.978614416666666,SPI,MOSI: '129' (0x81)
35.979315083333333,SPI,MOSI: '12' (0x0C)
36.591297083333330,SPI,MOSI: '193' (0xC1)
36.592013999999999,SPI,MOSI: '27' (0x1B)
36.592840583333334,SPI,MOSI: '127' (0x7F)
36.593556458333332,SPI,MOSI: '1' (0x01)
36.594447625000001,SPI,MOSI: '8' (0x08)
36.595287458333331,SPI,MOSI: '16' (0x10)
36.596062666666668,SPI,MOSI: '0' (0x00)
36.596935625000000,SPI,MOSI: '195' (0xC3)
36.597722083333331,SPI,MOSI: '1' (0x01)
36.598521833333336,SPI,MOSI: '0' (0x00)
36.599389458333334,SPI,MOSI: '129' (0x81)
36.600172624999999,SPI,MOSI: '1' (0x01)
36.600903125000002,SPI,MOSI: '255' (0xFF)
36.601618708333334,SPI,MOSI: '0' (0x00)
37.734879166666666,SPI,MOSI: '193' (0xC1)
37.735612291666669,SPI,MOSI: '27' (0x1B)
37.736579666666664,SPI,MOSI: '127' (0x7F)
37.737382041666663,SPI,MOSI: '1' (0x01)
37.738089333333335,SPI,MOSI: '8' (0x08)
37.738932791666670,SPI,MOSI: '16' (0x10)
37.739698375000003,SPI,MOSI: '0' (0x00)
37.740544499999999,SPI,MOSI: '195' (0xC3)
37.741406499999997,SPI,MOSI: '1' (0x01)
37.742174124999998,SPI,MOSI: '0' (0x00)
37.743040749999999,SPI,MOSI: '129' (0x81)
37.743874583333330,SPI,MOSI: '1' (0x01)
37.744607083333335,SPI,MOSI: '255' (0xFF)
37.745455499999998,SPI,MOSI: '0' (0x00)
37.985266875000001,SPI,MOSI: '192' (0xC0)
37.986168958333330,SPI,MOSI: '26' (0x1A)
37.986992208333334,SPI,MOSI: r (0x72)
37.987845291666666,SPI,MOSI: '1' (0x01)
37.988741750000003,SPI,MOSI: '144' (0x90)
38.006823041666664,SPI,MOSI: '193' (0xC1)
38.007619791666670,SPI,MOSI: '27' (0x1B)
38.008511624999997,SPI,MOSI: '127' (0x7F)
38.009336875000002,SPI,MOSI: '1' (0x01)
38.010108083333336,SPI,MOSI: '8' (0x08)
38.010921083333336,SPI,MOSI: '16' (0x10)
38.011703583333336,SPI,MOSI: '0' (0x00)
38.012415500000003,SPI,MOSI: '195' (0xC3)
38.013120833333332,SPI,MOSI: '1' (0x01)
38.013922541666666,SPI,MOSI: '0' (0x00)
38.014696083333334,SPI,MOSI: '129' (0x81)
38.015460041666664,SPI,MOSI: '1' (0x01)
38.016176625000000,SPI,MOSI: '255' (0xFF)
38.016900166666666,SPI,MOSI: '0' (0x00)
39.148344708333333,SPI,MOSI: '193' (0xC1)
39.149054333333332,SPI,MOSI: '27' (0x1B)
39.149872958333333,SPI,MOSI: '127' (0x7F)
39.150608374999997,SPI,MOSI: '1' (0x01)
39.151451166666668,SPI,MOSI: '8' (0x08)
39.152218791666670,SPI,MOSI: '16' (0x10)
39.152989666666670,SPI,MOSI: '0' (0x00)
39.153691000000002,SPI,MOSI: '195' (0xC3)
39.154464583333336,SPI,MOSI: '1' (0x01)
39.155180791666666,SPI,MOSI: '0' (0x00)
39.155980874999997,SPI,MOSI: '129' (0x81)
39.156683208333334,SPI,MOSI: '1' (0x01)
39.157478958333336,SPI,MOSI: '255' (0xFF)
39.158246541666664,SPI,MOSI: '0' (0x00)
39.661063416666664,SPI,MOSI: '192' (0xC0)
39.662004250000003,SPI,MOSI: '26' (0x1A)
39.662743374999998,SPI,MOSI: r (0x72)
39.663541416666668,SPI,MOSI: '1' (0x01)
39.664320291666670,SPI,MOSI: '144' (0x90)
39.682717250000003,SPI,MOSI: '193' (0xC1)
39.683494125000003,SPI,MOSI: '27' (0x1B)
39.684209375000002,SPI,MOSI: '127' (0x7F)
39.684909374999997,SPI,MOSI: '1' (0x01)
39.685723000000003,SPI,MOSI: '8' (0x08)
39.686633041666667,SPI,MOSI: '16' (0x10)
39.687395333333335,SPI,MOSI: '0' (0x00)
39.688287833333334,SPI,MOSI: '195' (0xC3)
39.689215416666670,SPI,MOSI: '1' (0x01)
39.689956500000001,SPI,MOSI: '0' (0x00)
39.690837750000000,SPI,MOSI: '129' (0x81)
39.691771291666669,SPI,MOSI: '1' (0x01)
39.692502458333337,SPI,MOSI: '255' (0xFF)
39.693296208333336,SPI,MOSI: '0' (0x00)
40.830206833333335,SPI,MOSI: '193' (0xC1)
40.830933666666667,SPI,MOSI: '27' (0x1B)
40.831750958333330,SPI,MOSI: '127' (0x7F)
40.832468541666664,SPI,MOSI: '1' (0x01)
40.833338791666669,SPI,MOSI: '8' (0x08)
40.834113041666669,SPI,MOSI: '16' (0x10)
40.834887250000001,SPI,MOSI: '0' (0x00)
40.835601166666663,SPI,MOSI: '195' (0xC3)
40.836358458333336,SPI,MOSI: '1' (0x01)
40.837075708333330,SPI,MOSI: '0' (0x00)
40.837861500000002,SPI,MOSI: '129' (0x81)
40.838821250000002,SPI,MOSI: '1' (0x01)
40.839639875000003,SPI,MOSI: '255' (0xFF)
40.840419708333336,SPI,MOSI: '0' (0x00)
41.961201750000001,SPI,MOSI: '193' (0xC1)
41.961930250000002,SPI,MOSI: '27' (0x1B)
41.962748833333336,SPI,MOSI: '127' (0x7F)
41.963489916666667,SPI,MOSI: '1' (0x01)
41.964367500000002,SPI,MOSI: '8' (0x08)
41.965240750000000,SPI,MOSI: '16' (0x10)
41.965994750000000,SPI,MOSI: '0' (0x00)
41.966845166666666,SPI,MOSI: '195' (0xC3)
41.967609791666668,SPI,MOSI: '1' (0x01)
41.968336291666667,SPI,MOSI: '0' (0x00)
41.969035624999997,SPI,MOSI: '129' (0x81)
41.969848249999998,SPI,MOSI: '1' (0x01)
41.970618166666668,SPI,MOSI: '255' (0xFF)
41.971375500000001,SPI,MOSI: '0' (0x00)
42.013168624999999,SPI,MOSI: '0' (0x00)
42.014038916666664,SPI,MOSI: '30' (0x1E)
42.014916833333331,SPI,MOSI: '236' (0xEC)
42.015757958333332,SPI,MOSI: '143' (0x8F)
42.016669999999998,SPI,MOSI: '143' (0x8F)
42.017852083333331,SPI,MOSI: '0' (0x00)
42.019051750000003,SPI,MOSI: '138' (0x8A)
42.020251458333334,SPI,MOSI: '175' (0xAF)
42.021451124999999,SPI,MOSI: 7 (0x37)
42.022660833333333,SPI,MOSI: '1' (0x01)
